154-	Offending '((!rst) | ({AWREADY, WREADY, BVALID, BRESP, ARREADY, RVALID, RDATA, RRESP} == 0))'
155-UVM_INFO @ 1950: reporter [MISCMP] Miscompare for observed_item.BRESP: lhs = 'h2 : rhs = 'h0
156-UVM_INFO @ 1950: reporter [MISCMP] 1 Miscompare(s) for object observed_item@1113 vs. observed_item@1101
157-UVM_ERROR axi_scoreboard.sv(101) @ 1950: uvm_test_top.env.sb [AXI_SB] Mismatch: DUT BRESP=0 RDATA=0 RRESP=0; REF BRESP=2 RDATA=0 RRESP=0
158-UVM_INFO axi_base_seq.sv(24) @ 1950: uvm_test_top.env.wr_agt.sqr@@wr1 [SEQ] AWADDR=24, AWPROT=0, AWVALID=0, WDATA=1615071202, WSTRB=10, WVALID=0, ARADDR=12, ARPROT=0, ARVALID=0, RREADY=0
159-"axi_bus_if.sv", 44: tb_top.bus_if.asyncrst: started at 200000ps failed at 200000ps
160-	Offending '((!rst) | ({AWREADY, WREADY, BVALID, BRESP, ARREADY, RVALID, RDATA, RRESP} == 0))'
161-"axi_bus_if.sv", 40: tb_top.bus_if.checkrst: started at 205000ps failed at 205000ps
162-	Offending '((!rst) | ({AWREADY, WREADY, BVALID, BRESP, ARREADY, RVALID, RDATA, RRESP} == 0))'
163-UVM_INFO @ 2050: reporter [MISCMP] Miscompare for observed_item.BRESP: lhs = 'h2 : rhs = 'h0
164-UVM_INFO @ 2050: reporter [MISCMP] 1 Miscompare(s) for object observed_item@1129 vs. observed_item@1117
165-UVM_ERROR axi_scoreboard.sv(101) @ 2050: uvm_test_top.env.sb [AXI_SB] Mismatch: DUT BRESP=0 RDATA=0 RRESP=0; REF BRESP=2 RDATA=0 RRESP=0
166-UVM_INFO axi_base_seq.sv(24) @ 2050: uvm_test_top.env.wr_agt.sqr@@rd [SEQ] AWADDR=16, AWPROT=0, AWVALID=0, WDATA=1680256004, WSTRB=1, WVALID=0, ARADDR=4, ARPROT=0, ARVALID=1, RREADY=0
167-"axi_bus_if.sv", 44: tb_top.bus_if.asyncrst: started at 210000ps failed at 210000ps
168-	Offending '((!rst) | ({AWREADY, WREADY, BVALID, BRESP, ARREADY, RVALID, RDATA, RRESP} == 0))'
169-"axi_bus_if.sv", 40: tb_top.bus_if.checkrst: started at 215000ps failed at 215000ps
170-	Offending '((!rst) | ({AWREADY, WREADY, BVALID, BRESP, ARREADY, RVALID, RDATA, RRESP} == 0))'
171-UVM_INFO @ 2150: reporter [MISCMP] Miscompare for observed_item.BRESP: lhs = 'h2 : rhs = 'h0
172-UVM_INFO @ 2150: reporter [MISCMP] 1 Miscompare(s) for object observed_item@1145 vs. observed_item@1133
173-UVM_ERROR axi_scoreboard.sv(101) @ 2150: uvm_test_top.env.sb [AXI_SB] Mismatch: DUT BRESP=0 RDATA=0 RRESP=2; REF BRESP=2 RDATA=0 RRESP=2
174:UVM_INFO axi_base_seq.sv(24) @ 2150: uvm_test_top.env.wr_agt.sqr@@wr_rd [SEQ] AWADDR=44, AWPROT=0, AWVALID=1, WDATA=4059156047, WSTRB=110, WVALID=1, ARADDR=8, ARPROT=0, ARVALID=1, RREADY=0
175-"axi_bus_if.sv", 44: tb_top.bus_if.asyncrst: started at 220000ps failed at 220000ps
176-	Offending '((!rst) | ({AWREADY, WREADY, BVALID, BRESP, ARREADY, RVALID, RDATA, RRESP} == 0))'
177-"axi_bus_if.sv", 40: tb_top.bus_if.checkrst: started at 225000ps failed at 225000ps
178-	Offending '((!rst) | ({AWREADY, WREADY, BVALID, BRESP, ARREADY, RVALID, RDATA, RRESP} == 0))'
179-UVM_INFO @ 2250: reporter [MISCMP] Miscompare for observed_item.BRESP: lhs = 'h2 : rhs = 'h0
180-UVM_INFO @ 2250: reporter [MISCMP] 1 Miscompare(s) for object observed_item@1161 vs. observed_item@1149
181-UVM_ERROR axi_scoreboard.sv(101) @ 2250: uvm_test_top.env.sb [AXI_SB] Mismatch: DUT BRESP=0 RDATA=0 RRESP=2; REF BRESP=2 RDATA=0 RRESP=2
182-UVM_INFO axi_base_seq.sv(24) @ 2250: uvm_test_top.env.wr_agt.sqr@@main_seq [SEQ] AWADDR=4, AWPROT=0, AWVALID=0, WDATA=1992911709, WSTRB=0, WVALID=0, ARADDR=12, ARPROT=0, ARVALID=1, RREADY=1
183-"axi_bus_if.sv", 44: tb_top.bus_if.asyncrst: started at 230000ps failed at 230000ps
184-	Offending '((!rst) | ({AWREADY, WREADY, BVALID, BRESP, ARREADY, RVALID, RDATA, RRESP} == 0))'
185-"axi_bus_if.sv", 40: tb_top.bus_if.checkrst: started at 235000ps failed at 235000ps
186-	Offending '((!rst) | ({AWREADY, WREADY, BVALID, BRESP, ARREADY, RVALID, RDATA, RRESP} == 0))'
187-UVM_INFO @ 2350: reporter [MISCMP] Miscompare for observed_item.BRESP: lhs = 'h2 : rhs = 'h0
188-UVM_INFO @ 2350: reporter [MISCMP] 1 Miscompare(s) for object observed_item@1177 vs. observed_item@1165
189-UVM_ERROR axi_scoreboard.sv(101) @ 2350: uvm_test_top.env.sb [AXI_SB] Mismatch: DUT BRESP=0 RDATA=0 RRESP=2; REF BRESP=2 RDATA=0 RRESP=2
190-UVM_INFO axi_base_seq.sv(24) @ 2350: uvm_test_top.env.wr_agt.sqr@@wr [SEQ] AWADDR=36, AWPROT=0, AWVALID=1, WDATA=462350433, WSTRB=1111, WVALID=1, ARADDR=4, ARPROT=0, ARVALID=0, RREADY=1
191-"axi_bus_if.sv", 44: tb_top.bus_if.asyncrst: started at 240000ps failed at 240000ps
192-	Offending '((!rst) | ({AWREADY, WREADY, BVALID, BRESP, ARREADY, RVALID, RDATA, RRESP} == 0))'
193-"axi_bus_if.sv", 40: tb_top.bus_if.checkrst: started at 245000ps failed at 245000ps
194-	Offending '((!rst) | ({AWREADY, WREADY, BVALID, BRESP, ARREADY, RVALID, RDATA, RRESP} == 0))'
--
202-	Offending '((!rst) | ({AWREADY, WREADY, BVALID, BRESP, ARREADY, RVALID, RDATA, RRESP} == 0))'
203-UVM_INFO @ 2550: reporter [MISCMP] Miscompare for observed_item.BRESP: lhs = 'h2 : rhs = 'h0
204-UVM_INFO @ 2550: reporter [MISCMP] 1 Miscompare(s) for object observed_item@1209 vs. observed_item@1197
205-UVM_ERROR axi_scoreboard.sv(101) @ 2550: uvm_test_top.env.sb [AXI_SB] Mismatch: DUT BRESP=0 RDATA=0 RRESP=2; REF BRESP=2 RDATA=0 RRESP=2
206-UVM_INFO axi_base_seq.sv(24) @ 2550: uvm_test_top.env.wr_agt.sqr@@wr1 [SEQ] AWADDR=24, AWPROT=0, AWVALID=0, WDATA=1615071202, WSTRB=10, WVALID=0, ARADDR=12, ARPROT=0, ARVALID=0, RREADY=1
207-"axi_bus_if.sv", 44: tb_top.bus_if.asyncrst: started at 260000ps failed at 260000ps
208-	Offending '((!rst) | ({AWREADY, WREADY, BVALID, BRESP, ARREADY, RVALID, RDATA, RRESP} == 0))'
209-"axi_bus_if.sv", 40: tb_top.bus_if.checkrst: started at 265000ps failed at 265000ps
210-	Offending '((!rst) | ({AWREADY, WREADY, BVALID, BRESP, ARREADY, RVALID, RDATA, RRESP} == 0))'
211-UVM_INFO @ 2650: reporter [MISCMP] Miscompare for observed_item.BRESP: lhs = 'h2 : rhs = 'h0
212-UVM_INFO @ 2650: reporter [MISCMP] 1 Miscompare(s) for object observed_item@1225 vs. observed_item@1213
213-UVM_ERROR axi_scoreboard.sv(101) @ 2650: uvm_test_top.env.sb [AXI_SB] Mismatch: DUT BRESP=0 RDATA=0 RRESP=2; REF BRESP=2 RDATA=0 RRESP=2
214-UVM_INFO axi_base_seq.sv(24) @ 2650: uvm_test_top.env.wr_agt.sqr@@rd [SEQ] AWADDR=16, AWPROT=0, AWVALID=0, WDATA=1680256004, WSTRB=1, WVALID=0, ARADDR=4, ARPROT=0, ARVALID=1, RREADY=1
215-"axi_bus_if.sv", 44: tb_top.bus_if.asyncrst: started at 270000ps failed at 270000ps
216-	Offending '((!rst) | ({AWREADY, WREADY, BVALID, BRESP, ARREADY, RVALID, RDATA, RRESP} == 0))'
217-"axi_bus_if.sv", 40: tb_top.bus_if.checkrst: started at 275000ps failed at 275000ps
218-	Offending '((!rst) | ({AWREADY, WREADY, BVALID, BRESP, ARREADY, RVALID, RDATA, RRESP} == 0))'
219-UVM_INFO @ 2750: reporter [MISCMP] Miscompare for observed_item.RDATA: lhs = 'h0 : rhs = 'hfb00
220-UVM_INFO @ 2750: reporter [MISCMP] 1 Miscompare(s) for object observed_item@1241 vs. observed_item@1229
221-UVM_ERROR axi_scoreboard.sv(101) @ 2750: uvm_test_top.env.sb [AXI_SB] Mismatch: DUT BRESP=0 RDATA=fb00 RRESP=0; REF BRESP=0 RDATA=0 RRESP=0
222:UVM_INFO axi_base_seq.sv(24) @ 2750: uvm_test_top.env.wr_agt.sqr@@wr_rd [SEQ] AWADDR=44, AWPROT=0, AWVALID=1, WDATA=4059156047, WSTRB=110, WVALID=1, ARADDR=8, ARPROT=0, ARVALID=1, RREADY=0
223-"axi_bus_if.sv", 44: tb_top.bus_if.asyncrst: started at 280000ps failed at 280000ps
224-	Offending '((!rst) | ({AWREADY, WREADY, BVALID, BRESP, ARREADY, RVALID, RDATA, RRESP} == 0))'
225-"axi_bus_if.sv", 40: tb_top.bus_if.checkrst: started at 285000ps failed at 285000ps
226-	Offending '((!rst) | ({AWREADY, WREADY, BVALID, BRESP, ARREADY, RVALID, RDATA, RRESP} == 0))'
227-UVM_INFO @ 2850: reporter [MISCMP] Miscompare for observed_item.RDATA: lhs = 'h0 : rhs = 'hfb00
228-UVM_INFO @ 2850: reporter [MISCMP] 1 Miscompare(s) for object observed_item@1257 vs. observed_item@1245
229-UVM_ERROR axi_scoreboard.sv(101) @ 2850: uvm_test_top.env.sb [AXI_SB] Mismatch: DUT BRESP=0 RDATA=fb00 RRESP=0; REF BRESP=0 RDATA=0 RRESP=0
230-UVM_INFO axi_base_seq.sv(24) @ 2850: uvm_test_top.env.wr_agt.sqr@@main_seq [SEQ] AWADDR=4, AWPROT=0, AWVALID=0, WDATA=1992911709, WSTRB=0, WVALID=1, ARADDR=12, ARPROT=0, ARVALID=1, RREADY=1
231-"axi_bus_if.sv", 44: tb_top.bus_if.asyncrst: started at 290000ps failed at 290000ps
232-	Offending '((!rst) | ({AWREADY, WREADY, BVALID, BRESP, ARREADY, RVALID, RDATA, RRESP} == 0))'
233-"axi_bus_if.sv", 40: tb_top.bus_if.checkrst: started at 295000ps failed at 295000ps
234-	Offending '((!rst) | ({AWREADY, WREADY, BVALID, BRESP, ARREADY, RVALID, RDATA, RRESP} == 0))'
235-UVM_INFO @ 2950: reporter [MISCMP] Miscompare for observed_item.RDATA: lhs = 'h0 : rhs = 'hfb00
236-UVM_INFO @ 2950: reporter [MISCMP] 1 Miscompare(s) for object observed_item@1273 vs. observed_item@1261
237-UVM_ERROR axi_scoreboard.sv(101) @ 2950: uvm_test_top.env.sb [AXI_SB] Mismatch: DUT BRESP=0 RDATA=fb00 RRESP=0; REF BRESP=0 RDATA=0 RRESP=0
238-UVM_INFO axi_base_seq.sv(24) @ 2950: uvm_test_top.env.wr_agt.sqr@@wr [SEQ] AWADDR=32, AWPROT=0, AWVALID=1, WDATA=2379582824, WSTRB=110, WVALID=1, ARADDR=4, ARPROT=0, ARVALID=0, RREADY=0
239-"axi_bus_if.sv", 44: tb_top.bus_if.asyncrst: started at 300000ps failed at 300000ps
240-	Offending '((!rst) | ({AWREADY, WREADY, BVALID, BRESP, ARREADY, RVALID, RDATA, RRESP} == 0))'
241-"axi_bus_if.sv", 40: tb_top.bus_if.checkrst: started at 305000ps failed at 305000ps
242-	Offending '((!rst) | ({AWREADY, WREADY, BVALID, BRESP, ARREADY, RVALID, RDATA, RRESP} == 0))'
--
244-UVM_INFO axi_base_seq.sv(24) @ 3050: uvm_test_top.env.wr_agt.sqr@@rd [SEQ] AWADDR=36, AWPROT=0, AWVALID=0, WDATA=3111224650, WSTRB=0, WVALID=0, ARADDR=44, ARPROT=0, ARVALID=1, RREADY=1
245-UVM_INFO @ 3150: reporter [MISCMP] Miscompare for observed_item.BRESP: lhs = 'h2 : rhs = 'h0
246-UVM_INFO @ 3150: reporter [MISCMP] 1 Miscompare(s) for object observed_item@1305 vs. observed_item@1293
247-UVM_ERROR axi_scoreboard.sv(101) @ 3150: uvm_test_top.env.sb [AXI_SB] Mismatch: DUT BRESP=0 RDATA=0 RRESP=0; REF BRESP=2 RDATA=0 RRESP=0
248-UVM_INFO axi_base_seq.sv(24) @ 3150: uvm_test_top.env.wr_agt.sqr@@wr1 [SEQ] AWADDR=24, AWPROT=0, AWVALID=0, WDATA=1615071202, WSTRB=10, WVALID=0, ARADDR=12, ARPROT=0, ARVALID=0, RREADY=1
249-"axi_bus_if.sv", 44: tb_top.bus_if.asyncrst: started at 320000ps failed at 320000ps
250-	Offending '((!rst) | ({AWREADY, WREADY, BVALID, BRESP, ARREADY, RVALID, RDATA, RRESP} == 0))'
251-"axi_bus_if.sv", 40: tb_top.bus_if.checkrst: started at 325000ps failed at 325000ps
252-	Offending '((!rst) | ({AWREADY, WREADY, BVALID, BRESP, ARREADY, RVALID, RDATA, RRESP} == 0))'
253-UVM_INFO @ 3250: reporter [MISCMP] Miscompare for observed_item.BRESP: lhs = 'h2 : rhs = 'h0
254-UVM_INFO @ 3250: reporter [MISCMP] 1 Miscompare(s) for object observed_item@1321 vs. observed_item@1309
255-UVM_ERROR axi_scoreboard.sv(101) @ 3250: uvm_test_top.env.sb [AXI_SB] Mismatch: DUT BRESP=0 RDATA=0 RRESP=0; REF BRESP=2 RDATA=0 RRESP=0
256-UVM_INFO axi_base_seq.sv(24) @ 3250: uvm_test_top.env.wr_agt.sqr@@rd [SEQ] AWADDR=16, AWPROT=0, AWVALID=0, WDATA=1680256004, WSTRB=1, WVALID=0, ARADDR=4, ARPROT=0, ARVALID=1, RREADY=0
257-"axi_bus_if.sv", 44: tb_top.bus_if.asyncrst: started at 330000ps failed at 330000ps
258-	Offending '((!rst) | ({AWREADY, WREADY, BVALID, BRESP, ARREADY, RVALID, RDATA, RRESP} == 0))'
259-"axi_bus_if.sv", 40: tb_top.bus_if.checkrst: started at 335000ps failed at 335000ps
260-	Offending '((!rst) | ({AWREADY, WREADY, BVALID, BRESP, ARREADY, RVALID, RDATA, RRESP} == 0))'
261-UVM_INFO @ 3350: reporter [MISCMP] Miscompare for observed_item.BRESP: lhs = 'h2 : rhs = 'h0
262-UVM_INFO @ 3350: reporter [MISCMP] 1 Miscompare(s) for object observed_item@1337 vs. observed_item@1325
263-UVM_ERROR axi_scoreboard.sv(101) @ 3350: uvm_test_top.env.sb [AXI_SB] Mismatch: DUT BRESP=0 RDATA=fb00 RRESP=0; REF BRESP=2 RDATA=0 RRESP=0
264:UVM_INFO axi_base_seq.sv(24) @ 3350: uvm_test_top.env.wr_agt.sqr@@wr_rd [SEQ] AWADDR=44, AWPROT=0, AWVALID=1, WDATA=4059156047, WSTRB=110, WVALID=1, ARADDR=8, ARPROT=0, ARVALID=1, RREADY=1
265-"axi_bus_if.sv", 44: tb_top.bus_if.asyncrst: started at 340000ps failed at 340000ps
266-	Offending '((!rst) | ({AWREADY, WREADY, BVALID, BRESP, ARREADY, RVALID, RDATA, RRESP} == 0))'
267-"axi_bus_if.sv", 40: tb_top.bus_if.checkrst: started at 345000ps failed at 345000ps
268-	Offending '((!rst) | ({AWREADY, WREADY, BVALID, BRESP, ARREADY, RVALID, RDATA, RRESP} == 0))'
269-UVM_INFO @ 3450: reporter [MISCMP] Miscompare for observed_item.BRESP: lhs = 'h2 : rhs = 'h0
270-UVM_INFO @ 3450: reporter [MISCMP] 1 Miscompare(s) for object observed_item@1353 vs. observed_item@1341
271-UVM_ERROR axi_scoreboard.sv(101) @ 3450: uvm_test_top.env.sb [AXI_SB] Mismatch: DUT BRESP=0 RDATA=fb00 RRESP=0; REF BRESP=2 RDATA=0 RRESP=0
272-UVM_INFO axi_base_seq.sv(24) @ 3450: uvm_test_top.env.wr_agt.sqr@@main_seq [SEQ] AWADDR=4, AWPROT=0, AWVALID=1, WDATA=1010975934, WSTRB=1, WVALID=0, ARADDR=52, ARPROT=0, ARVALID=1, RREADY=0
273-"axi_bus_if.sv", 44: tb_top.bus_if.asyncrst: started at 350000ps failed at 350000ps
274-	Offending '((!rst) | ({AWREADY, WREADY, BVALID, BRESP, ARREADY, RVALID, RDATA, RRESP} == 0))'
275-"axi_bus_if.sv", 40: tb_top.bus_if.checkrst: started at 355000ps failed at 355000ps
276-	Offending '((!rst) | ({AWREADY, WREADY, BVALID, BRESP, ARREADY, RVALID, RDATA, RRESP} == 0))'
277-UVM_INFO @ 3550: reporter [MISCMP] Miscompare for observed_item.BRESP: lhs = 'h2 : rhs = 'h0
278-UVM_INFO @ 3550: reporter [MISCMP] 1 Miscompare(s) for object observed_item@1369 vs. observed_item@1357
279-UVM_ERROR axi_scoreboard.sv(101) @ 3550: uvm_test_top.env.sb [AXI_SB] Mismatch: DUT BRESP=0 RDATA=fb00 RRESP=0; REF BRESP=2 RDATA=0 RRESP=0
280-UVM_INFO axi_base_seq.sv(24) @ 3550: uvm_test_top.env.wr_agt.sqr@@wr [SEQ] AWADDR=12, AWPROT=0, AWVALID=1, WDATA=3804781341, WSTRB=1010, WVALID=1, ARADDR=4, ARPROT=0, ARVALID=0, RREADY=1
281-"axi_bus_if.sv", 44: tb_top.bus_if.asyncrst: started at 360000ps failed at 360000ps
282-	Offending '((!rst) | ({AWREADY, WREADY, BVALID, BRESP, ARREADY, RVALID, RDATA, RRESP} == 0))'
283-"axi_bus_if.sv", 40: tb_top.bus_if.checkrst: started at 365000ps failed at 365000ps
284-	Offending '((!rst) | ({AWREADY, WREADY, BVALID, BRESP, ARREADY, RVALID, RDATA, RRESP} == 0))'
285-UVM_INFO @ 3650: reporter [MISCMP] Miscompare for observed_item.BRESP: lhs = 'h2 : rhs = 'h0
286-UVM_INFO @ 3650: reporter [MISCMP] 1 Miscompare(s) for object observed_item@1385 vs. observed_item@1373
287-UVM_ERROR axi_scoreboard.sv(101) @ 3650: uvm_test_top.env.sb [AXI_SB] Mismatch: DUT BRESP=0 RDATA=0 RRESP=0; REF BRESP=2 RDATA=0 RRESP=0
288-UVM_INFO axi_base_seq.sv(24) @ 3650: uvm_test_top.env.wr_agt.sqr@@rd [SEQ] AWADDR=36, AWPROT=0, AWVALID=0, WDATA=3111224650, WSTRB=0, WVALID=0, ARADDR=44, ARPROT=0, ARVALID=1, RREADY=0
289-"axi_bus_if.sv", 44: tb_top.bus_if.asyncrst: started at 370000ps failed at 370000ps
290-	Offending '((!rst) | ({AWREADY, WREADY, BVALID, BRESP, ARREADY, RVALID, RDATA, RRESP} == 0))'
291-"axi_bus_if.sv", 40: tb_top.bus_if.checkrst: started at 375000ps failed at 375000ps
292-	Offending '((!rst) | ({AWREADY, WREADY, BVALID, BRESP, ARREADY, RVALID, RDATA, RRESP} == 0))'
293-UVM_INFO axi_scoreboard.sv(98) @ 3750: uvm_test_top.env.sb [AXI_SB] CHECK PASS
294-UVM_INFO axi_base_seq.sv(24) @ 3750: uvm_test_top.env.wr_agt.sqr@@wr1 [SEQ] AWADDR=24, AWPROT=0, AWVALID=0, WDATA=1615071202, WSTRB=10, WVALID=0, ARADDR=12, ARPROT=0, ARVALID=0, RREADY=1
295-UVM_INFO axi_scoreboard.sv(98) @ 3850: uvm_test_top.env.sb [AXI_SB] CHECK PASS
296-UVM_INFO axi_base_seq.sv(24) @ 3850: uvm_test_top.env.wr_agt.sqr@@rd [SEQ] AWADDR=16, AWPROT=0, AWVALID=0, WDATA=1680256004, WSTRB=1, WVALID=0, ARADDR=4, ARPROT=0, ARVALID=1, RREADY=1
297-"axi_bus_if.sv", 44: tb_top.bus_if.asyncrst: started at 390000ps failed at 390000ps
298-	Offending '((!rst) | ({AWREADY, WREADY, BVALID, BRESP, ARREADY, RVALID, RDATA, RRESP} == 0))'
299-"axi_bus_if.sv", 40: tb_top.bus_if.checkrst: started at 395000ps failed at 395000ps
300-	Offending '((!rst) | ({AWREADY, WREADY, BVALID, BRESP, ARREADY, RVALID, RDATA, RRESP} == 0))'
301-UVM_INFO axi_scoreboard.sv(98) @ 3950: uvm_test_top.env.sb [AXI_SB] CHECK PASS
302:UVM_INFO axi_base_seq.sv(24) @ 3950: uvm_test_top.env.wr_agt.sqr@@wr_rd [SEQ] AWADDR=20, AWPROT=0, AWVALID=1, WDATA=3251427555, WSTRB=1011, WVALID=1, ARADDR=8, ARPROT=0, ARVALID=1, RREADY=0
303-"axi_bus_if.sv", 44: tb_top.bus_if.asyncrst: started at 400000ps failed at 400000ps
304-	Offending '((!rst) | ({AWREADY, WREADY, BVALID, BRESP, ARREADY, RVALID, RDATA, RRESP} == 0))'
305-"axi_bus_if.sv", 40: tb_top.bus_if.checkrst: started at 405000ps failed at 405000ps
306-	Offending '((!rst) | ({AWREADY, WREADY, BVALID, BRESP, ARREADY, RVALID, RDATA, RRESP} == 0))'
307-UVM_INFO axi_scoreboard.sv(98) @ 4050: uvm_test_top.env.sb [AXI_SB] CHECK PASS
308-UVM_INFO axi_base_seq.sv(24) @ 4050: uvm_test_top.env.wr_agt.sqr@@main_seq [SEQ] AWADDR=60, AWPROT=0, AWVALID=1, WDATA=1010975934, WSTRB=1, WVALID=1, ARADDR=44, ARPROT=0, ARVALID=0, RREADY=0
309-"axi_bus_if.sv", 44: tb_top.bus_if.asyncrst: started at 410000ps failed at 410000ps
310-	Offending '((!rst) | ({AWREADY, WREADY, BVALID, BRESP, ARREADY, RVALID, RDATA, RRESP} == 0))'
311-"axi_bus_if.sv", 40: tb_top.bus_if.checkrst: started at 415000ps failed at 415000ps
312-	Offending '((!rst) | ({AWREADY, WREADY, BVALID, BRESP, ARREADY, RVALID, RDATA, RRESP} == 0))'
313-UVM_INFO @ 4150: reporter [MISCMP] Miscompare for observed_item.RDATA: lhs = 'hf1ce00 : rhs = 'he2005b00
314-UVM_INFO @ 4150: reporter [MISCMP] 1 Miscompare(s) for object observed_item@1465 vs. observed_item@1453
315-UVM_ERROR axi_scoreboard.sv(101) @ 4150: uvm_test_top.env.sb [AXI_SB] Mismatch: DUT BRESP=0 RDATA=e2005b00 RRESP=0; REF BRESP=0 RDATA=f1ce00 RRESP=0
316-UVM_INFO axi_base_seq.sv(24) @ 4150: uvm_test_top.env.wr_agt.sqr@@wr [SEQ] AWADDR=48, AWPROT=0, AWVALID=1, WDATA=614366204, WSTRB=110, WVALID=1, ARADDR=4, ARPROT=0, ARVALID=0, RREADY=0
317-"axi_bus_if.sv", 44: tb_top.bus_if.asyncrst: started at 420000ps failed at 420000ps
318-	Offending '((!rst) | ({AWREADY, WREADY, BVALID, BRESP, ARREADY, RVALID, RDATA, RRESP} == 0))'
319-"axi_bus_if.sv", 40: tb_top.bus_if.checkrst: started at 425000ps failed at 425000ps
320-	Offending '((!rst) | ({AWREADY, WREADY, BVALID, BRESP, ARREADY, RVALID, RDATA, RRESP} == 0))'
321-UVM_INFO @ 4250: reporter [MISCMP] Miscompare for observed_item.RDATA: lhs = 'hf1ce00 : rhs = 'he2005b00
322-UVM_INFO @ 4250: reporter [MISCMP] 1 Miscompare(s) for object observed_item@1481 vs. observed_item@1469
--
540-	Offending '((!rst) | ({AWREADY, WREADY, BVALID, BRESP, ARREADY, RVALID, RDATA, RRESP} == 0))'
541-UVM_INFO @ 7350: reporter [MISCMP] Miscompare for observed_item.BRESP: lhs = 'h2 : rhs = 'h0
542-UVM_INFO @ 7350: reporter [MISCMP] 1 Miscompare(s) for object observed_item@1977 vs. observed_item@1965
543-UVM_ERROR axi_scoreboard.sv(101) @ 7350: uvm_test_top.env.sb [AXI_SB] Mismatch: DUT BRESP=0 RDATA=0 RRESP=0; REF BRESP=2 RDATA=0 RRESP=0
544-UVM_INFO axi_base_seq.sv(24) @ 7350: uvm_test_top.env.wr_agt.sqr@@wr1 [SEQ] AWADDR=24, AWPROT=0, AWVALID=1, WDATA=1615071202, WSTRB=10, WVALID=0, ARADDR=12, ARPROT=0, ARVALID=0, RREADY=0
545-"axi_bus_if.sv", 44: tb_top.bus_if.asyncrst: started at 740000ps failed at 740000ps
546-	Offending '((!rst) | ({AWREADY, WREADY, BVALID, BRESP, ARREADY, RVALID, RDATA, RRESP} == 0))'
547-"axi_bus_if.sv", 40: tb_top.bus_if.checkrst: started at 745000ps failed at 745000ps
548-	Offending '((!rst) | ({AWREADY, WREADY, BVALID, BRESP, ARREADY, RVALID, RDATA, RRESP} == 0))'
549-UVM_INFO @ 7450: reporter [MISCMP] Miscompare for observed_item.BRESP: lhs = 'h2 : rhs = 'h0
550-UVM_INFO @ 7450: reporter [MISCMP] 1 Miscompare(s) for object observed_item@1993 vs. observed_item@1981
551-UVM_ERROR axi_scoreboard.sv(101) @ 7450: uvm_test_top.env.sb [AXI_SB] Mismatch: DUT BRESP=0 RDATA=0 RRESP=0; REF BRESP=2 RDATA=0 RRESP=0
552-UVM_INFO axi_base_seq.sv(24) @ 7450: uvm_test_top.env.wr_agt.sqr@@rd [SEQ] AWADDR=16, AWPROT=0, AWVALID=0, WDATA=1680256004, WSTRB=1, WVALID=0, ARADDR=24, ARPROT=0, ARVALID=1, RREADY=0
553-"axi_bus_if.sv", 44: tb_top.bus_if.asyncrst: started at 750000ps failed at 750000ps
554-	Offending '((!rst) | ({AWREADY, WREADY, BVALID, BRESP, ARREADY, RVALID, RDATA, RRESP} == 0))'
555-"axi_bus_if.sv", 40: tb_top.bus_if.checkrst: started at 755000ps failed at 755000ps
556-	Offending '((!rst) | ({AWREADY, WREADY, BVALID, BRESP, ARREADY, RVALID, RDATA, RRESP} == 0))'
557-UVM_INFO @ 7550: reporter [MISCMP] Miscompare for observed_item.BRESP: lhs = 'h2 : rhs = 'h0
558-UVM_INFO @ 7550: reporter [MISCMP] 1 Miscompare(s) for object observed_item@2009 vs. observed_item@1997
559-UVM_ERROR axi_scoreboard.sv(101) @ 7550: uvm_test_top.env.sb [AXI_SB] Mismatch: DUT BRESP=0 RDATA=dd7a0016 RRESP=0; REF BRESP=2 RDATA=63539a RRESP=0
560:UVM_INFO axi_base_seq.sv(24) @ 7550: uvm_test_top.env.wr_agt.sqr@@wr_rd [SEQ] AWADDR=60, AWPROT=0, AWVALID=1, WDATA=1169765759, WSTRB=1111, WVALID=1, ARADDR=8, ARPROT=0, ARVALID=1, RREADY=1
561-"axi_bus_if.sv", 44: tb_top.bus_if.asyncrst: started at 760000ps failed at 760000ps
562-	Offending '((!rst) | ({AWREADY, WREADY, BVALID, BRESP, ARREADY, RVALID, RDATA, RRESP} == 0))'
563-"axi_bus_if.sv", 40: tb_top.bus_if.checkrst: started at 765000ps failed at 765000ps
564-	Offending '((!rst) | ({AWREADY, WREADY, BVALID, BRESP, ARREADY, RVALID, RDATA, RRESP} == 0))'
565-UVM_INFO @ 7650: reporter [MISCMP] Miscompare for observed_item.BRESP: lhs = 'h2 : rhs = 'h0
566-UVM_INFO @ 7650: reporter [MISCMP] 1 Miscompare(s) for object observed_item@2025 vs. observed_item@2013
567-UVM_ERROR axi_scoreboard.sv(101) @ 7650: uvm_test_top.env.sb [AXI_SB] Mismatch: DUT BRESP=0 RDATA=dd7a0016 RRESP=0; REF BRESP=2 RDATA=63539a RRESP=0
568-UVM_INFO axi_base_seq.sv(24) @ 7650: uvm_test_top.env.wr_agt.sqr@@main_seq [SEQ] AWADDR=52, AWPROT=0, AWVALID=0, WDATA=3077452621, WSTRB=1, WVALID=1, ARADDR=44, ARPROT=0, ARVALID=1, RREADY=0
569-"axi_bus_if.sv", 44: tb_top.bus_if.asyncrst: started at 770000ps failed at 770000ps
570-	Offending '((!rst) | ({AWREADY, WREADY, BVALID, BRESP, ARREADY, RVALID, RDATA, RRESP} == 0))'
571-"axi_bus_if.sv", 40: tb_top.bus_if.checkrst: started at 775000ps failed at 775000ps
572-	Offending '((!rst) | ({AWREADY, WREADY, BVALID, BRESP, ARREADY, RVALID, RDATA, RRESP} == 0))'
573-UVM_INFO @ 7750: reporter [MISCMP] Miscompare for observed_item.BRESP: lhs = 'h2 : rhs = 'h0
574-UVM_INFO @ 7750: reporter [MISCMP] 1 Miscompare(s) for object observed_item@2041 vs. observed_item@2029
575-UVM_ERROR axi_scoreboard.sv(101) @ 7750: uvm_test_top.env.sb [AXI_SB] Mismatch: DUT BRESP=0 RDATA=dd7a0016 RRESP=0; REF BRESP=2 RDATA=63539a RRESP=0
576-UVM_INFO axi_base_seq.sv(24) @ 7750: uvm_test_top.env.wr_agt.sqr@@wr [SEQ] AWADDR=32, AWPROT=0, AWVALID=1, WDATA=4049058975, WSTRB=1000, WVALID=1, ARADDR=4, ARPROT=0, ARVALID=0, RREADY=0
577-"axi_bus_if.sv", 44: tb_top.bus_if.asyncrst: started at 780000ps failed at 780000ps
578-	Offending '((!rst) | ({AWREADY, WREADY, BVALID, BRESP, ARREADY, RVALID, RDATA, RRESP} == 0))'
579-"axi_bus_if.sv", 40: tb_top.bus_if.checkrst: started at 785000ps failed at 785000ps
580-	Offending '((!rst) | ({AWREADY, WREADY, BVALID, BRESP, ARREADY, RVALID, RDATA, RRESP} == 0))'
--
588-	Offending '((!rst) | ({AWREADY, WREADY, BVALID, BRESP, ARREADY, RVALID, RDATA, RRESP} == 0))'
589-UVM_INFO @ 7950: reporter [MISCMP] Miscompare for observed_item.RDATA: lhs = 'h63539a : rhs = 'hdd7a0016
590-UVM_INFO @ 7950: reporter [MISCMP] 1 Miscompare(s) for object observed_item@2073 vs. observed_item@2061
591-UVM_ERROR axi_scoreboard.sv(101) @ 7950: uvm_test_top.env.sb [AXI_SB] Mismatch: DUT BRESP=0 RDATA=dd7a0016 RRESP=0; REF BRESP=0 RDATA=63539a RRESP=0
592-UVM_INFO axi_base_seq.sv(24) @ 7950: uvm_test_top.env.wr_agt.sqr@@wr1 [SEQ] AWADDR=24, AWPROT=0, AWVALID=0, WDATA=1615071202, WSTRB=10, WVALID=0, ARADDR=12, ARPROT=0, ARVALID=0, RREADY=1
593-"axi_bus_if.sv", 44: tb_top.bus_if.asyncrst: started at 800000ps failed at 800000ps
594-	Offending '((!rst) | ({AWREADY, WREADY, BVALID, BRESP, ARREADY, RVALID, RDATA, RRESP} == 0))'
595-"axi_bus_if.sv", 40: tb_top.bus_if.checkrst: started at 805000ps failed at 805000ps
596-	Offending '((!rst) | ({AWREADY, WREADY, BVALID, BRESP, ARREADY, RVALID, RDATA, RRESP} == 0))'
597-UVM_INFO @ 8050: reporter [MISCMP] Miscompare for observed_item.RDATA: lhs = 'h63539a : rhs = 'hdd7a0016
598-UVM_INFO @ 8050: reporter [MISCMP] 1 Miscompare(s) for object observed_item@2089 vs. observed_item@2077
599-UVM_ERROR axi_scoreboard.sv(101) @ 8050: uvm_test_top.env.sb [AXI_SB] Mismatch: DUT BRESP=0 RDATA=dd7a0016 RRESP=0; REF BRESP=0 RDATA=63539a RRESP=0
600-UVM_INFO axi_base_seq.sv(24) @ 8050: uvm_test_top.env.wr_agt.sqr@@rd [SEQ] AWADDR=16, AWPROT=0, AWVALID=0, WDATA=1680256004, WSTRB=1, WVALID=0, ARADDR=24, ARPROT=0, ARVALID=1, RREADY=1
601-"axi_bus_if.sv", 44: tb_top.bus_if.asyncrst: started at 810000ps failed at 810000ps
602-	Offending '((!rst) | ({AWREADY, WREADY, BVALID, BRESP, ARREADY, RVALID, RDATA, RRESP} == 0))'
603-"axi_bus_if.sv", 40: tb_top.bus_if.checkrst: started at 815000ps failed at 815000ps
604-	Offending '((!rst) | ({AWREADY, WREADY, BVALID, BRESP, ARREADY, RVALID, RDATA, RRESP} == 0))'
605-UVM_INFO @ 8150: reporter [MISCMP] Miscompare for observed_item.RDATA: lhs = 'h45b9357f : rhs = 'hdc001900
606-UVM_INFO @ 8150: reporter [MISCMP] 1 Miscompare(s) for object observed_item@2105 vs. observed_item@2093
607-UVM_ERROR axi_scoreboard.sv(101) @ 8150: uvm_test_top.env.sb [AXI_SB] Mismatch: DUT BRESP=0 RDATA=dc001900 RRESP=0; REF BRESP=0 RDATA=45b9357f RRESP=0
608:UVM_INFO axi_base_seq.sv(24) @ 8150: uvm_test_top.env.wr_agt.sqr@@wr_rd [SEQ] AWADDR=56, AWPROT=0, AWVALID=1, WDATA=3928893951, WSTRB=101, WVALID=1, ARADDR=8, ARPROT=0, ARVALID=1, RREADY=0
609-"axi_bus_if.sv", 44: tb_top.bus_if.asyncrst: started at 820000ps failed at 820000ps
610-	Offending '((!rst) | ({AWREADY, WREADY, BVALID, BRESP, ARREADY, RVALID, RDATA, RRESP} == 0))'
611-"axi_bus_if.sv", 40: tb_top.bus_if.checkrst: started at 825000ps failed at 825000ps
612-	Offending '((!rst) | ({AWREADY, WREADY, BVALID, BRESP, ARREADY, RVALID, RDATA, RRESP} == 0))'
613-UVM_INFO @ 8250: reporter [MISCMP] Miscompare for observed_item.RDATA: lhs = 'h45b9357f : rhs = 'hdc001900
614-UVM_INFO @ 8250: reporter [MISCMP] 1 Miscompare(s) for object observed_item@2121 vs. observed_item@2109
615-UVM_ERROR axi_scoreboard.sv(101) @ 8250: uvm_test_top.env.sb [AXI_SB] Mismatch: DUT BRESP=0 RDATA=dc001900 RRESP=0; REF BRESP=0 RDATA=45b9357f RRESP=0
616-UVM_INFO axi_base_seq.sv(24) @ 8250: uvm_test_top.env.wr_agt.sqr@@main_seq [SEQ] AWADDR=52, AWPROT=0, AWVALID=1, WDATA=3228231579, WSTRB=100, WVALID=1, ARADDR=44, ARPROT=0, ARVALID=1, RREADY=1
617-"axi_bus_if.sv", 44: tb_top.bus_if.asyncrst: started at 830000ps failed at 830000ps
618-	Offending '((!rst) | ({AWREADY, WREADY, BVALID, BRESP, ARREADY, RVALID, RDATA, RRESP} == 0))'
619-"axi_bus_if.sv", 40: tb_top.bus_if.checkrst: started at 835000ps failed at 835000ps
620-	Offending '((!rst) | ({AWREADY, WREADY, BVALID, BRESP, ARREADY, RVALID, RDATA, RRESP} == 0))'
621-UVM_INFO @ 8350: reporter [MISCMP] Miscompare for observed_item.RDATA: lhs = 'h45b9357f : rhs = 'hdc001900
622-UVM_INFO @ 8350: reporter [MISCMP] 1 Miscompare(s) for object observed_item@2137 vs. observed_item@2125
623-UVM_ERROR axi_scoreboard.sv(101) @ 8350: uvm_test_top.env.sb [AXI_SB] Mismatch: DUT BRESP=0 RDATA=dc001900 RRESP=0; REF BRESP=0 RDATA=45b9357f RRESP=0
624-UVM_INFO axi_base_seq.sv(24) @ 8350: uvm_test_top.env.wr_agt.sqr@@wr [SEQ] AWADDR=32, AWPROT=0, AWVALID=1, WDATA=4049058975, WSTRB=1000, WVALID=1, ARADDR=4, ARPROT=0, ARVALID=0, RREADY=1
625-"axi_bus_if.sv", 44: tb_top.bus_if.asyncrst: started at 840000ps failed at 840000ps
626-	Offending '((!rst) | ({AWREADY, WREADY, BVALID, BRESP, ARREADY, RVALID, RDATA, RRESP} == 0))'
627-"axi_bus_if.sv", 40: tb_top.bus_if.checkrst: started at 845000ps failed at 845000ps
628-	Offending '((!rst) | ({AWREADY, WREADY, BVALID, BRESP, ARREADY, RVALID, RDATA, RRESP} == 0))'
629-UVM_INFO axi_scoreboard.sv(98) @ 8450: uvm_test_top.env.sb [AXI_SB] CHECK PASS
630-UVM_INFO axi_base_seq.sv(24) @ 8450: uvm_test_top.env.wr_agt.sqr@@rd [SEQ] AWADDR=36, AWPROT=0, AWVALID=0, WDATA=3111224650, WSTRB=0, WVALID=0, ARADDR=52, ARPROT=0, ARVALID=1, RREADY=1
631-UVM_INFO axi_scoreboard.sv(98) @ 8550: uvm_test_top.env.sb [AXI_SB] CHECK PASS
632-UVM_INFO axi_base_seq.sv(24) @ 8550: uvm_test_top.env.wr_agt.sqr@@wr1 [SEQ] AWADDR=24, AWPROT=0, AWVALID=0, WDATA=1615071202, WSTRB=10, WVALID=0, ARADDR=12, ARPROT=0, ARVALID=0, RREADY=0
633-"axi_bus_if.sv", 44: tb_top.bus_if.asyncrst: started at 860000ps failed at 860000ps
634-	Offending '((!rst) | ({AWREADY, WREADY, BVALID, BRESP, ARREADY, RVALID, RDATA, RRESP} == 0))'
635-"axi_bus_if.sv", 40: tb_top.bus_if.checkrst: started at 865000ps failed at 865000ps
636-	Offending '((!rst) | ({AWREADY, WREADY, BVALID, BRESP, ARREADY, RVALID, RDATA, RRESP} == 0))'
637-UVM_INFO axi_scoreboard.sv(98) @ 8650: uvm_test_top.env.sb [AXI_SB] CHECK PASS
638-UVM_INFO axi_base_seq.sv(24) @ 8650: uvm_test_top.env.wr_agt.sqr@@rd [SEQ] AWADDR=16, AWPROT=0, AWVALID=0, WDATA=1680256004, WSTRB=1, WVALID=0, ARADDR=24, ARPROT=0, ARVALID=1, RREADY=1
639-"axi_bus_if.sv", 44: tb_top.bus_if.asyncrst: started at 870000ps failed at 870000ps
640-	Offending '((!rst) | ({AWREADY, WREADY, BVALID, BRESP, ARREADY, RVALID, RDATA, RRESP} == 0))'
641-"axi_bus_if.sv", 40: tb_top.bus_if.checkrst: started at 875000ps failed at 875000ps
642-	Offending '((!rst) | ({AWREADY, WREADY, BVALID, BRESP, ARREADY, RVALID, RDATA, RRESP} == 0))'
643-UVM_INFO axi_scoreboard.sv(98) @ 8750: uvm_test_top.env.sb [AXI_SB] CHECK PASS
644:UVM_INFO axi_base_seq.sv(24) @ 8750: uvm_test_top.env.wr_agt.sqr@@wr_rd [SEQ] AWADDR=56, AWPROT=0, AWVALID=1, WDATA=3928893951, WSTRB=101, WVALID=1, ARADDR=8, ARPROT=0, ARVALID=1, RREADY=0
645-"axi_bus_if.sv", 44: tb_top.bus_if.asyncrst: started at 880000ps failed at 880000ps
646-	Offending '((!rst) | ({AWREADY, WREADY, BVALID, BRESP, ARREADY, RVALID, RDATA, RRESP} == 0))'
647-"axi_bus_if.sv", 40: tb_top.bus_if.checkrst: started at 885000ps failed at 885000ps
648-	Offending '((!rst) | ({AWREADY, WREADY, BVALID, BRESP, ARREADY, RVALID, RDATA, RRESP} == 0))'
649-UVM_INFO axi_scoreboard.sv(98) @ 8850: uvm_test_top.env.sb [AXI_SB] CHECK PASS
650-UVM_INFO axi_base_seq.sv(24) @ 8850: uvm_test_top.env.wr_agt.sqr@@main_seq [SEQ] AWADDR=24, AWPROT=0, AWVALID=1, WDATA=1478278108, WSTRB=100, WVALID=1, ARADDR=40, ARPROT=0, ARVALID=1, RREADY=1
651-"axi_bus_if.sv", 44: tb_top.bus_if.asyncrst: started at 890000ps failed at 890000ps
652-	Offending '((!rst) | ({AWREADY, WREADY, BVALID, BRESP, ARREADY, RVALID, RDATA, RRESP} == 0))'
653-"axi_bus_if.sv", 40: tb_top.bus_if.checkrst: started at 895000ps failed at 895000ps
654-	Offending '((!rst) | ({AWREADY, WREADY, BVALID, BRESP, ARREADY, RVALID, RDATA, RRESP} == 0))'
655-UVM_INFO axi_scoreboard.sv(98) @ 8950: uvm_test_top.env.sb [AXI_SB] CHECK PASS
656-UVM_INFO axi_base_seq.sv(24) @ 8950: uvm_test_top.env.wr_agt.sqr@@wr [SEQ] AWADDR=16, AWPROT=0, AWVALID=1, WDATA=1179917366, WSTRB=11, WVALID=1, ARADDR=4, ARPROT=0, ARVALID=0, RREADY=0
657-"axi_bus_if.sv", 44: tb_top.bus_if.asyncrst: started at 900000ps failed at 900000ps
658-	Offending '((!rst) | ({AWREADY, WREADY, BVALID, BRESP, ARREADY, RVALID, RDATA, RRESP} == 0))'
659-"axi_bus_if.sv", 40: tb_top.bus_if.checkrst: started at 905000ps failed at 905000ps
660-	Offending '((!rst) | ({AWREADY, WREADY, BVALID, BRESP, ARREADY, RVALID, RDATA, RRESP} == 0))'
661-UVM_INFO axi_scoreboard.sv(98) @ 9050: uvm_test_top.env.sb [AXI_SB] CHECK PASS
662-UVM_INFO axi_base_seq.sv(24) @ 9050: uvm_test_top.env.wr_agt.sqr@@rd [SEQ] AWADDR=36, AWPROT=0, AWVALID=0, WDATA=3111224650, WSTRB=0, WVALID=0, ARADDR=52, ARPROT=0, ARVALID=1, RREADY=1
663-"axi_bus_if.sv", 44: tb_top.bus_if.asyncrst: started at 910000ps failed at 910000ps
664-	Offending '((!rst) | ({AWREADY, WREADY, BVALID, BRESP, ARREADY, RVALID, RDATA, RRESP} == 0))'
--
666-	Offending '((!rst) | ({AWREADY, WREADY, BVALID, BRESP, ARREADY, RVALID, RDATA, RRESP} == 0))'
667-UVM_INFO @ 9150: reporter [MISCMP] Miscompare for observed_item.RDATA: lhs = 'h0 : rhs = 'hdc001900
668-UVM_INFO @ 9150: reporter [MISCMP] 1 Miscompare(s) for object observed_item@2265 vs. observed_item@2253
669-UVM_ERROR axi_scoreboard.sv(101) @ 9150: uvm_test_top.env.sb [AXI_SB] Mismatch: DUT BRESP=0 RDATA=dc001900 RRESP=0; REF BRESP=0 RDATA=0 RRESP=0
670-UVM_INFO axi_base_seq.sv(24) @ 9150: uvm_test_top.env.wr_agt.sqr@@wr1 [SEQ] AWADDR=24, AWPROT=0, AWVALID=0, WDATA=1615071202, WSTRB=10, WVALID=0, ARADDR=12, ARPROT=0, ARVALID=0, RREADY=1
671-"axi_bus_if.sv", 44: tb_top.bus_if.asyncrst: started at 920000ps failed at 920000ps
672-	Offending '((!rst) | ({AWREADY, WREADY, BVALID, BRESP, ARREADY, RVALID, RDATA, RRESP} == 0))'
673-"axi_bus_if.sv", 40: tb_top.bus_if.checkrst: started at 925000ps failed at 925000ps
674-	Offending '((!rst) | ({AWREADY, WREADY, BVALID, BRESP, ARREADY, RVALID, RDATA, RRESP} == 0))'
675-UVM_INFO @ 9250: reporter [MISCMP] Miscompare for observed_item.RDATA: lhs = 'h0 : rhs = 'hdc001900
676-UVM_INFO @ 9250: reporter [MISCMP] 1 Miscompare(s) for object observed_item@2281 vs. observed_item@2269
677-UVM_ERROR axi_scoreboard.sv(101) @ 9250: uvm_test_top.env.sb [AXI_SB] Mismatch: DUT BRESP=0 RDATA=dc001900 RRESP=0; REF BRESP=0 RDATA=0 RRESP=0
678-UVM_INFO axi_base_seq.sv(24) @ 9250: uvm_test_top.env.wr_agt.sqr@@rd [SEQ] AWADDR=16, AWPROT=0, AWVALID=0, WDATA=1680256004, WSTRB=1, WVALID=0, ARADDR=24, ARPROT=0, ARVALID=1, RREADY=0
679-"axi_bus_if.sv", 44: tb_top.bus_if.asyncrst: started at 930000ps failed at 930000ps
680-	Offending '((!rst) | ({AWREADY, WREADY, BVALID, BRESP, ARREADY, RVALID, RDATA, RRESP} == 0))'
681-"axi_bus_if.sv", 40: tb_top.bus_if.checkrst: started at 935000ps failed at 935000ps
682-	Offending '((!rst) | ({AWREADY, WREADY, BVALID, BRESP, ARREADY, RVALID, RDATA, RRESP} == 0))'
683-UVM_INFO @ 9350: reporter [MISCMP] Miscompare for observed_item.RDATA: lhs = 'h0 : rhs = 'hdc001900
684-UVM_INFO @ 9350: reporter [MISCMP] 1 Miscompare(s) for object observed_item@2297 vs. observed_item@2285
685-UVM_ERROR axi_scoreboard.sv(101) @ 9350: uvm_test_top.env.sb [AXI_SB] Mismatch: DUT BRESP=0 RDATA=dc001900 RRESP=0; REF BRESP=0 RDATA=0 RRESP=0
686:UVM_INFO axi_base_seq.sv(24) @ 9350: uvm_test_top.env.wr_agt.sqr@@wr_rd [SEQ] AWADDR=16, AWPROT=0, AWVALID=1, WDATA=3471614743, WSTRB=1100, WVALID=1, ARADDR=8, ARPROT=0, ARVALID=1, RREADY=1
687-"axi_bus_if.sv", 44: tb_top.bus_if.asyncrst: started at 940000ps failed at 940000ps
688-	Offending '((!rst) | ({AWREADY, WREADY, BVALID, BRESP, ARREADY, RVALID, RDATA, RRESP} == 0))'
689-"axi_bus_if.sv", 40: tb_top.bus_if.checkrst: started at 945000ps failed at 945000ps
690-	Offending '((!rst) | ({AWREADY, WREADY, BVALID, BRESP, ARREADY, RVALID, RDATA, RRESP} == 0))'
691-UVM_INFO @ 9450: reporter [MISCMP] Miscompare for observed_item.RDATA: lhs = 'h0 : rhs = 'hdc001900
692-UVM_INFO @ 9450: reporter [MISCMP] 1 Miscompare(s) for object observed_item@2313 vs. observed_item@2301
693-UVM_ERROR axi_scoreboard.sv(101) @ 9450: uvm_test_top.env.sb [AXI_SB] Mismatch: DUT BRESP=0 RDATA=dc001900 RRESP=0; REF BRESP=0 RDATA=0 RRESP=0
694-UVM_INFO axi_base_seq.sv(24) @ 9450: uvm_test_top.env.wr_agt.sqr@@main_seq [SEQ] AWADDR=52, AWPROT=0, AWVALID=0, WDATA=2994153883, WSTRB=1000, WVALID=1, ARADDR=40, ARPROT=0, ARVALID=1, RREADY=0
695-"axi_bus_if.sv", 44: tb_top.bus_if.asyncrst: started at 950000ps failed at 950000ps
696-	Offending '((!rst) | ({AWREADY, WREADY, BVALID, BRESP, ARREADY, RVALID, RDATA, RRESP} == 0))'
697-"axi_bus_if.sv", 40: tb_top.bus_if.checkrst: started at 955000ps failed at 955000ps
698-	Offending '((!rst) | ({AWREADY, WREADY, BVALID, BRESP, ARREADY, RVALID, RDATA, RRESP} == 0))'
699-UVM_INFO @ 9550: reporter [MISCMP] Miscompare for observed_item.RDATA: lhs = 'h1c0000 : rhs = 'hdc001900
700-UVM_INFO @ 9550: reporter [MISCMP] 1 Miscompare(s) for object observed_item@2329 vs. observed_item@2317
701-UVM_ERROR axi_scoreboard.sv(101) @ 9550: uvm_test_top.env.sb [AXI_SB] Mismatch: DUT BRESP=0 RDATA=dc001900 RRESP=0; REF BRESP=0 RDATA=1c0000 RRESP=0
702-UVM_INFO axi_base_seq.sv(24) @ 9550: uvm_test_top.env.wr_agt.sqr@@wr [SEQ] AWADDR=36, AWPROT=0, AWVALID=1, WDATA=1746231586, WSTRB=1001, WVALID=1, ARADDR=4, ARPROT=0, ARVALID=0, RREADY=1
703-"axi_bus_if.sv", 44: tb_top.bus_if.asyncrst: started at 960000ps failed at 960000ps
704-	Offending '((!rst) | ({AWREADY, WREADY, BVALID, BRESP, ARREADY, RVALID, RDATA, RRESP} == 0))'
705-"axi_bus_if.sv", 40: tb_top.bus_if.checkrst: started at 965000ps failed at 965000ps
706-	Offending '((!rst) | ({AWREADY, WREADY, BVALID, BRESP, ARREADY, RVALID, RDATA, RRESP} == 0))'
--
3142-	Offending '((!rst) | ({AWREADY, WREADY, BVALID, BRESP, ARREADY, RVALID, RDATA, RRESP} == 0))'
3143-UVM_INFO @ 42050: reporter [MISCMP] Miscompare for observed_item.RDATA: lhs = 'hc0f4ce55 : rhs = 'hcc98cec6
3144-UVM_INFO @ 42050: reporter [MISCMP] 1 Miscompare(s) for object observed_item@7529 vs. observed_item@7517
3145-UVM_ERROR axi_scoreboard.sv(101) @ 42050: uvm_test_top.env.sb [AXI_SB] Mismatch: DUT BRESP=0 RDATA=cc98cec6 RRESP=0; REF BRESP=0 RDATA=c0f4ce55 RRESP=0
3146-UVM_INFO axi_base_seq.sv(24) @ 42050: uvm_test_top.env.wr_agt.sqr@@rd [SEQ] AWADDR=36, AWPROT=0, AWVALID=0, WDATA=3111224650, WSTRB=0, WVALID=0, ARADDR=24, ARPROT=0, ARVALID=1, RREADY=0
3147-"axi_bus_if.sv", 44: tb_top.bus_if.asyncrst: started at 4210000ps failed at 4210000ps
3148-	Offending '((!rst) | ({AWREADY, WREADY, BVALID, BRESP, ARREADY, RVALID, RDATA, RRESP} == 0))'
3149-"axi_bus_if.sv", 40: tb_top.bus_if.checkrst: started at 4215000ps failed at 4215000ps
3150-	Offending '((!rst) | ({AWREADY, WREADY, BVALID, BRESP, ARREADY, RVALID, RDATA, RRESP} == 0))'
3151-UVM_INFO @ 42150: reporter [MISCMP] Miscompare for observed_item.RDATA: lhs = 'hc0f4ce55 : rhs = 'hcc98cec6
3152-UVM_INFO @ 42150: reporter [MISCMP] 1 Miscompare(s) for object observed_item@7545 vs. observed_item@7533
3153-UVM_ERROR axi_scoreboard.sv(101) @ 42150: uvm_test_top.env.sb [AXI_SB] Mismatch: DUT BRESP=0 RDATA=cc98cec6 RRESP=0; REF BRESP=0 RDATA=c0f4ce55 RRESP=0
3154-UVM_INFO axi_base_seq.sv(24) @ 42150: uvm_test_top.env.wr_agt.sqr@@wr1 [SEQ] AWADDR=24, AWPROT=0, AWVALID=0, WDATA=1615071202, WSTRB=10, WVALID=0, ARADDR=12, ARPROT=0, ARVALID=0, RREADY=0
3155-"axi_bus_if.sv", 44: tb_top.bus_if.asyncrst: started at 4220000ps failed at 4220000ps
3156-	Offending '((!rst) | ({AWREADY, WREADY, BVALID, BRESP, ARREADY, RVALID, RDATA, RRESP} == 0))'
3157-"axi_bus_if.sv", 40: tb_top.bus_if.checkrst: started at 4225000ps failed at 4225000ps
3158-	Offending '((!rst) | ({AWREADY, WREADY, BVALID, BRESP, ARREADY, RVALID, RDATA, RRESP} == 0))'
3159-UVM_INFO @ 42250: reporter [MISCMP] Miscompare for observed_item.RDATA: lhs = 'hc0f4ce55 : rhs = 'hcc98cec6
3160-UVM_INFO @ 42250: reporter [MISCMP] 1 Miscompare(s) for object observed_item@7561 vs. observed_item@7549
3161-UVM_ERROR axi_scoreboard.sv(101) @ 42250: uvm_test_top.env.sb [AXI_SB] Mismatch: DUT BRESP=0 RDATA=cc98cec6 RRESP=0; REF BRESP=0 RDATA=c0f4ce55 RRESP=0
3162:UVM_INFO axi_base_seq.sv(24) @ 42250: uvm_test_top.env.wr_agt.sqr@@rd [SEQ] AWADDR=16, AWPROT=0, AWVALID=0, WDATA=1680256004, WSTRB=1, WVALID=0, ARADDR=8, ARPROT=0, ARVALID=1, RREADY=0
3163-"axi_bus_if.sv", 44: tb_top.bus_if.asyncrst: started at 4230000ps failed at 4230000ps
3164-	Offending '((!rst) | ({AWREADY, WREADY, BVALID, BRESP, ARREADY, RVALID, RDATA, RRESP} == 0))'
3165-"axi_bus_if.sv", 40: tb_top.bus_if.checkrst: started at 4235000ps failed at 4235000ps
3166-	Offending '((!rst) | ({AWREADY, WREADY, BVALID, BRESP, ARREADY, RVALID, RDATA, RRESP} == 0))'
3167-UVM_INFO @ 42350: reporter [MISCMP] Miscompare for observed_item.RDATA: lhs = 'h378793ff : rhs = 'hcc00dd00
3168-UVM_INFO @ 42350: reporter [MISCMP] 1 Miscompare(s) for object observed_item@7577 vs. observed_item@7565
3169-UVM_ERROR axi_scoreboard.sv(101) @ 42350: uvm_test_top.env.sb [AXI_SB] Mismatch: DUT BRESP=0 RDATA=cc00dd00 RRESP=0; REF BRESP=0 RDATA=378793ff RRESP=0
3170-UVM_INFO axi_base_seq.sv(24) @ 42350: uvm_test_top.env.wr_agt.sqr@@wr_rd [SEQ] AWADDR=8, AWPROT=0, AWVALID=1, WDATA=2088199033, WSTRB=10, WVALID=1, ARADDR=20, ARPROT=0, ARVALID=1, RREADY=1
3171-"axi_bus_if.sv", 44: tb_top.bus_if.asyncrst: started at 4240000ps failed at 4240000ps
3172-	Offending '((!rst) | ({AWREADY, WREADY, BVALID, BRESP, ARREADY, RVALID, RDATA, RRESP} == 0))'
3173-"axi_bus_if.sv", 40: tb_top.bus_if.checkrst: started at 4245000ps failed at 4245000ps
3174-	Offending '((!rst) | ({AWREADY, WREADY, BVALID, BRESP, ARREADY, RVALID, RDATA, RRESP} == 0))'
3175-UVM_INFO @ 42450: reporter [MISCMP] Miscompare for observed_item.RDATA: lhs = 'h378793ff : rhs = 'hcc00dd00
3176-UVM_INFO @ 42450: reporter [MISCMP] 1 Miscompare(s) for object observed_item@7593 vs. observed_item@7581
3177-UVM_ERROR axi_scoreboard.sv(101) @ 42450: uvm_test_top.env.sb [AXI_SB] Mismatch: DUT BRESP=0 RDATA=cc00dd00 RRESP=0; REF BRESP=0 RDATA=378793ff RRESP=0
3178-UVM_INFO axi_base_seq.sv(24) @ 42450: uvm_test_top.env.wr_agt.sqr@@main_seq [SEQ] AWADDR=8, AWPROT=0, AWVALID=0, WDATA=2116768137, WSTRB=100, WVALID=1, ARADDR=36, ARPROT=0, ARVALID=1, RREADY=1
3179-"axi_bus_if.sv", 44: tb_top.bus_if.asyncrst: started at 4250000ps failed at 4250000ps
3180-	Offending '((!rst) | ({AWREADY, WREADY, BVALID, BRESP, ARREADY, RVALID, RDATA, RRESP} == 0))'
3181-"axi_bus_if.sv", 40: tb_top.bus_if.checkrst: started at 4255000ps failed at 4255000ps
3182-	Offending '((!rst) | ({AWREADY, WREADY, BVALID, BRESP, ARREADY, RVALID, RDATA, RRESP} == 0))'
--
3190-	Offending '((!rst) | ({AWREADY, WREADY, BVALID, BRESP, ARREADY, RVALID, RDATA, RRESP} == 0))'
3191-UVM_INFO @ 42650: reporter [MISCMP] Miscompare for observed_item.RDATA: lhs = 'h378793ff : rhs = 'hcc00dd00
3192-UVM_INFO @ 42650: reporter [MISCMP] 1 Miscompare(s) for object observed_item@7625 vs. observed_item@7613
3193-UVM_ERROR axi_scoreboard.sv(101) @ 42650: uvm_test_top.env.sb [AXI_SB] Mismatch: DUT BRESP=0 RDATA=cc00dd00 RRESP=0; REF BRESP=0 RDATA=378793ff RRESP=0
3194-UVM_INFO axi_base_seq.sv(24) @ 42650: uvm_test_top.env.wr_agt.sqr@@rd [SEQ] AWADDR=36, AWPROT=0, AWVALID=0, WDATA=3111224650, WSTRB=0, WVALID=0, ARADDR=40, ARPROT=0, ARVALID=1, RREADY=1
3195-"axi_bus_if.sv", 44: tb_top.bus_if.asyncrst: started at 4270000ps failed at 4270000ps
3196-	Offending '((!rst) | ({AWREADY, WREADY, BVALID, BRESP, ARREADY, RVALID, RDATA, RRESP} == 0))'
3197-"axi_bus_if.sv", 40: tb_top.bus_if.checkrst: started at 4275000ps failed at 4275000ps
3198-	Offending '((!rst) | ({AWREADY, WREADY, BVALID, BRESP, ARREADY, RVALID, RDATA, RRESP} == 0))'
3199-UVM_INFO @ 42750: reporter [MISCMP] Miscompare for observed_item.RDATA: lhs = 'h378793ff : rhs = 'hcc00dd00
3200-UVM_INFO @ 42750: reporter [MISCMP] 1 Miscompare(s) for object observed_item@7641 vs. observed_item@7629
3201-UVM_ERROR axi_scoreboard.sv(101) @ 42750: uvm_test_top.env.sb [AXI_SB] Mismatch: DUT BRESP=0 RDATA=cc00dd00 RRESP=0; REF BRESP=0 RDATA=378793ff RRESP=0
3202-UVM_INFO axi_base_seq.sv(24) @ 42750: uvm_test_top.env.wr_agt.sqr@@wr1 [SEQ] AWADDR=24, AWPROT=0, AWVALID=0, WDATA=1615071202, WSTRB=10, WVALID=0, ARADDR=12, ARPROT=0, ARVALID=0, RREADY=0
3203-"axi_bus_if.sv", 44: tb_top.bus_if.asyncrst: started at 4280000ps failed at 4280000ps
3204-	Offending '((!rst) | ({AWREADY, WREADY, BVALID, BRESP, ARREADY, RVALID, RDATA, RRESP} == 0))'
3205-"axi_bus_if.sv", 40: tb_top.bus_if.checkrst: started at 4285000ps failed at 4285000ps
3206-	Offending '((!rst) | ({AWREADY, WREADY, BVALID, BRESP, ARREADY, RVALID, RDATA, RRESP} == 0))'
3207-UVM_INFO @ 42850: reporter [MISCMP] Miscompare for observed_item.BRESP: lhs = 'h0 : rhs = 'h2
3208-UVM_INFO @ 42850: reporter [MISCMP] 1 Miscompare(s) for object observed_item@7657 vs. observed_item@7645
3209-UVM_ERROR axi_scoreboard.sv(101) @ 42850: uvm_test_top.env.sb [AXI_SB] Mismatch: DUT BRESP=2 RDATA=cc00dd00 RRESP=0; REF BRESP=0 RDATA=378793ff RRESP=0
3210:UVM_INFO axi_base_seq.sv(24) @ 42850: uvm_test_top.env.wr_agt.sqr@@rd [SEQ] AWADDR=16, AWPROT=0, AWVALID=0, WDATA=1680256004, WSTRB=1, WVALID=0, ARADDR=8, ARPROT=0, ARVALID=1, RREADY=1
3211-"axi_bus_if.sv", 44: tb_top.bus_if.asyncrst: started at 4290000ps failed at 4290000ps
3212-	Offending '((!rst) | ({AWREADY, WREADY, BVALID, BRESP, ARREADY, RVALID, RDATA, RRESP} == 0))'
3213-"axi_bus_if.sv", 40: tb_top.bus_if.checkrst: started at 4295000ps failed at 4295000ps
3214-	Offending '((!rst) | ({AWREADY, WREADY, BVALID, BRESP, ARREADY, RVALID, RDATA, RRESP} == 0))'
3215-UVM_INFO @ 42950: reporter [MISCMP] Miscompare for observed_item.BRESP: lhs = 'h0 : rhs = 'h2
3216-UVM_INFO @ 42950: reporter [MISCMP] 1 Miscompare(s) for object observed_item@7673 vs. observed_item@7661
3217-UVM_ERROR axi_scoreboard.sv(101) @ 42950: uvm_test_top.env.sb [AXI_SB] Mismatch: DUT BRESP=2 RDATA=0 RRESP=0; REF BRESP=0 RDATA=0 RRESP=0
3218-UVM_INFO axi_base_seq.sv(24) @ 42950: uvm_test_top.env.wr_agt.sqr@@wr_rd [SEQ] AWADDR=4, AWPROT=0, AWVALID=1, WDATA=222090944, WSTRB=101, WVALID=1, ARADDR=20, ARPROT=0, ARVALID=1, RREADY=0
3219-"axi_bus_if.sv", 44: tb_top.bus_if.asyncrst: started at 4300000ps failed at 4300000ps
3220-	Offending '((!rst) | ({AWREADY, WREADY, BVALID, BRESP, ARREADY, RVALID, RDATA, RRESP} == 0))'
3221-"axi_bus_if.sv", 40: tb_top.bus_if.checkrst: started at 4305000ps failed at 4305000ps
3222-	Offending '((!rst) | ({AWREADY, WREADY, BVALID, BRESP, ARREADY, RVALID, RDATA, RRESP} == 0))'
3223-UVM_INFO @ 43050: reporter [MISCMP] Miscompare for observed_item.BRESP: lhs = 'h0 : rhs = 'h2
3224-UVM_INFO @ 43050: reporter [MISCMP] 1 Miscompare(s) for object observed_item@7689 vs. observed_item@7677
3225-UVM_ERROR axi_scoreboard.sv(101) @ 43050: uvm_test_top.env.sb [AXI_SB] Mismatch: DUT BRESP=2 RDATA=0 RRESP=0; REF BRESP=0 RDATA=0 RRESP=0
3226-UVM_INFO axi_base_seq.sv(24) @ 43050: uvm_test_top.env.wr_agt.sqr@@main_seq [SEQ] AWADDR=8, AWPROT=0, AWVALID=1, WDATA=1159120733, WSTRB=0, WVALID=0, ARADDR=36, ARPROT=0, ARVALID=1, RREADY=1
3227-"axi_bus_if.sv", 44: tb_top.bus_if.asyncrst: started at 4310000ps failed at 4310000ps
3228-	Offending '((!rst) | ({AWREADY, WREADY, BVALID, BRESP, ARREADY, RVALID, RDATA, RRESP} == 0))'
3229-"axi_bus_if.sv", 40: tb_top.bus_if.checkrst: started at 4315000ps failed at 4315000ps
3230-	Offending '((!rst) | ({AWREADY, WREADY, BVALID, BRESP, ARREADY, RVALID, RDATA, RRESP} == 0))'
--
3238-	Offending '((!rst) | ({AWREADY, WREADY, BVALID, BRESP, ARREADY, RVALID, RDATA, RRESP} == 0))'
3239-UVM_INFO @ 43250: reporter [MISCMP] Miscompare for observed_item.BRESP: lhs = 'h0 : rhs = 'h2
3240-UVM_INFO @ 43250: reporter [MISCMP] 1 Miscompare(s) for object observed_item@7721 vs. observed_item@7709
3241-UVM_ERROR axi_scoreboard.sv(101) @ 43250: uvm_test_top.env.sb [AXI_SB] Mismatch: DUT BRESP=2 RDATA=0 RRESP=0; REF BRESP=0 RDATA=0 RRESP=0
3242-UVM_INFO axi_base_seq.sv(24) @ 43250: uvm_test_top.env.wr_agt.sqr@@rd [SEQ] AWADDR=36, AWPROT=0, AWVALID=0, WDATA=3111224650, WSTRB=0, WVALID=0, ARADDR=32, ARPROT=0, ARVALID=1, RREADY=0
3243-"axi_bus_if.sv", 44: tb_top.bus_if.asyncrst: started at 4330000ps failed at 4330000ps
3244-	Offending '((!rst) | ({AWREADY, WREADY, BVALID, BRESP, ARREADY, RVALID, RDATA, RRESP} == 0))'
3245-"axi_bus_if.sv", 40: tb_top.bus_if.checkrst: started at 4335000ps failed at 4335000ps
3246-	Offending '((!rst) | ({AWREADY, WREADY, BVALID, BRESP, ARREADY, RVALID, RDATA, RRESP} == 0))'
3247-UVM_INFO @ 43350: reporter [MISCMP] Miscompare for observed_item.BRESP: lhs = 'h0 : rhs = 'h2
3248-UVM_INFO @ 43350: reporter [MISCMP] 1 Miscompare(s) for object observed_item@7737 vs. observed_item@7725
3249-UVM_ERROR axi_scoreboard.sv(101) @ 43350: uvm_test_top.env.sb [AXI_SB] Mismatch: DUT BRESP=2 RDATA=cc98cec6 RRESP=0; REF BRESP=0 RDATA=c0f4ce55 RRESP=0
3250-UVM_INFO axi_base_seq.sv(24) @ 43350: uvm_test_top.env.wr_agt.sqr@@wr1 [SEQ] AWADDR=24, AWPROT=0, AWVALID=0, WDATA=1615071202, WSTRB=10, WVALID=0, ARADDR=12, ARPROT=0, ARVALID=0, RREADY=0
3251-"axi_bus_if.sv", 44: tb_top.bus_if.asyncrst: started at 4340000ps failed at 4340000ps
3252-	Offending '((!rst) | ({AWREADY, WREADY, BVALID, BRESP, ARREADY, RVALID, RDATA, RRESP} == 0))'
3253-"axi_bus_if.sv", 40: tb_top.bus_if.checkrst: started at 4345000ps failed at 4345000ps
3254-	Offending '((!rst) | ({AWREADY, WREADY, BVALID, BRESP, ARREADY, RVALID, RDATA, RRESP} == 0))'
3255-UVM_INFO @ 43450: reporter [MISCMP] Miscompare for observed_item.BRESP: lhs = 'h0 : rhs = 'h2
3256-UVM_INFO @ 43450: reporter [MISCMP] 1 Miscompare(s) for object observed_item@7753 vs. observed_item@7741
3257-UVM_ERROR axi_scoreboard.sv(101) @ 43450: uvm_test_top.env.sb [AXI_SB] Mismatch: DUT BRESP=2 RDATA=cc98cec6 RRESP=0; REF BRESP=0 RDATA=c0f4ce55 RRESP=0
3258:UVM_INFO axi_base_seq.sv(24) @ 43450: uvm_test_top.env.wr_agt.sqr@@rd [SEQ] AWADDR=16, AWPROT=0, AWVALID=0, WDATA=1680256004, WSTRB=1, WVALID=0, ARADDR=8, ARPROT=0, ARVALID=1, RREADY=0
3259-"axi_bus_if.sv", 44: tb_top.bus_if.asyncrst: started at 4350000ps failed at 4350000ps
3260-	Offending '((!rst) | ({AWREADY, WREADY, BVALID, BRESP, ARREADY, RVALID, RDATA, RRESP} == 0))'
3261-"axi_bus_if.sv", 40: tb_top.bus_if.checkrst: started at 4355000ps failed at 4355000ps
3262-	Offending '((!rst) | ({AWREADY, WREADY, BVALID, BRESP, ARREADY, RVALID, RDATA, RRESP} == 0))'
3263-UVM_INFO @ 43550: reporter [MISCMP] Miscompare for observed_item.RDATA: lhs = 'hc0f4ce55 : rhs = 'hcc98cec6
3264-UVM_INFO @ 43550: reporter [MISCMP] 1 Miscompare(s) for object observed_item@7769 vs. observed_item@7757
3265-UVM_ERROR axi_scoreboard.sv(101) @ 43550: uvm_test_top.env.sb [AXI_SB] Mismatch: DUT BRESP=0 RDATA=cc98cec6 RRESP=0; REF BRESP=0 RDATA=c0f4ce55 RRESP=0
3266-UVM_INFO axi_base_seq.sv(24) @ 43550: uvm_test_top.env.wr_agt.sqr@@wr_rd [SEQ] AWADDR=16, AWPROT=0, AWVALID=1, WDATA=2215888971, WSTRB=1000, WVALID=1, ARADDR=20, ARPROT=0, ARVALID=1, RREADY=0
3267-"axi_bus_if.sv", 44: tb_top.bus_if.asyncrst: started at 4360000ps failed at 4360000ps
3268-	Offending '((!rst) | ({AWREADY, WREADY, BVALID, BRESP, ARREADY, RVALID, RDATA, RRESP} == 0))'
3269-"axi_bus_if.sv", 40: tb_top.bus_if.checkrst: started at 4365000ps failed at 4365000ps
3270-	Offending '((!rst) | ({AWREADY, WREADY, BVALID, BRESP, ARREADY, RVALID, RDATA, RRESP} == 0))'
3271-UVM_INFO @ 43650: reporter [MISCMP] Miscompare for observed_item.RDATA: lhs = 'hc0f4ce55 : rhs = 'hcc98cec6
3272-UVM_INFO @ 43650: reporter [MISCMP] 1 Miscompare(s) for object observed_item@7785 vs. observed_item@7773
3273-UVM_ERROR axi_scoreboard.sv(101) @ 43650: uvm_test_top.env.sb [AXI_SB] Mismatch: DUT BRESP=0 RDATA=cc98cec6 RRESP=0; REF BRESP=0 RDATA=c0f4ce55 RRESP=0
3274-UVM_INFO axi_base_seq.sv(24) @ 43650: uvm_test_top.env.wr_agt.sqr@@main_seq [SEQ] AWADDR=36, AWPROT=0, AWVALID=1, WDATA=1159120733, WSTRB=0, WVALID=1, ARADDR=36, ARPROT=0, ARVALID=1, RREADY=0
3275-"axi_bus_if.sv", 44: tb_top.bus_if.asyncrst: started at 4370000ps failed at 4370000ps
3276-	Offending '((!rst) | ({AWREADY, WREADY, BVALID, BRESP, ARREADY, RVALID, RDATA, RRESP} == 0))'
3277-"axi_bus_if.sv", 40: tb_top.bus_if.checkrst: started at 4375000ps failed at 4375000ps
3278-	Offending '((!rst) | ({AWREADY, WREADY, BVALID, BRESP, ARREADY, RVALID, RDATA, RRESP} == 0))'
--
5176-	Offending '((!rst) | ({AWREADY, WREADY, BVALID, BRESP, ARREADY, RVALID, RDATA, RRESP} == 0))'
5177-UVM_INFO axi_scoreboard.sv(98) @ 70950: uvm_test_top.env.sb [AXI_SB] CHECK PASS
5178-UVM_INFO axi_base_seq.sv(24) @ 70950: uvm_test_top.env.wr_agt.sqr@@wr1 [SEQ] AWADDR=232, AWPROT=0, AWVALID=0, WDATA=1164572856, WSTRB=111, WVALID=0, ARADDR=70, ARPROT=0, ARVALID=0, RREADY=0
5179-"axi_bus_if.sv", 44: tb_top.bus_if.asyncrst: started at 7100000ps failed at 7100000ps
5180-	Offending '((!rst) | ({AWREADY, WREADY, BVALID, BRESP, ARREADY, RVALID, RDATA, RRESP} == 0))'
5181-"axi_bus_if.sv", 40: tb_top.bus_if.checkrst: started at 7105000ps failed at 7105000ps
5182-	Offending '((!rst) | ({AWREADY, WREADY, BVALID, BRESP, ARREADY, RVALID, RDATA, RRESP} == 0))'
5183-UVM_INFO axi_scoreboard.sv(98) @ 71050: uvm_test_top.env.sb [AXI_SB] CHECK PASS
5184-UVM_INFO axi_base_seq.sv(24) @ 71050: uvm_test_top.env.wr_agt.sqr@@rd [SEQ] AWADDR=160, AWPROT=0, AWVALID=0, WDATA=869306167, WSTRB=1000, WVALID=0, ARADDR=121, ARPROT=0, ARVALID=1, RREADY=1
5185-"axi_bus_if.sv", 44: tb_top.bus_if.asyncrst: started at 7110000ps failed at 7110000ps
5186-	Offending '((!rst) | ({AWREADY, WREADY, BVALID, BRESP, ARREADY, RVALID, RDATA, RRESP} == 0))'
5187-"axi_bus_if.sv", 40: tb_top.bus_if.checkrst: started at 7115000ps failed at 7115000ps
5188-	Offending '((!rst) | ({AWREADY, WREADY, BVALID, BRESP, ARREADY, RVALID, RDATA, RRESP} == 0))'
5189-UVM_INFO axi_scoreboard.sv(98) @ 71150: uvm_test_top.env.sb [AXI_SB] CHECK PASS
5190-UVM_INFO axi_base_seq.sv(24) @ 71150: uvm_test_top.env.wr_agt.sqr@@wr_rd [SEQ] AWADDR=202, AWPROT=0, AWVALID=1, WDATA=1825289669, WSTRB=1001, WVALID=1, ARADDR=182, ARPROT=0, ARVALID=1, RREADY=1
5191-"axi_bus_if.sv", 44: tb_top.bus_if.asyncrst: started at 7120000ps failed at 7120000ps
5192-	Offending '((!rst) | ({AWREADY, WREADY, BVALID, BRESP, ARREADY, RVALID, RDATA, RRESP} == 0))'
5193-"axi_bus_if.sv", 40: tb_top.bus_if.checkrst: started at 7125000ps failed at 7125000ps
5194-	Offending '((!rst) | ({AWREADY, WREADY, BVALID, BRESP, ARREADY, RVALID, RDATA, RRESP} == 0))'
5195-UVM_INFO axi_scoreboard.sv(98) @ 71250: uvm_test_top.env.sb [AXI_SB] CHECK PASS
5196:UVM_INFO axi_base_seq.sv(24) @ 71250: uvm_test_top.env.wr_agt.sqr@@main_seq [SEQ] AWADDR=76, AWPROT=0, AWVALID=0, WDATA=2910775161, WSTRB=11, WVALID=1, ARADDR=80, ARPROT=0, ARVALID=0, RREADY=1
5197-"axi_bus_if.sv", 44: tb_top.bus_if.asyncrst: started at 7130000ps failed at 7130000ps
5198-	Offending '((!rst) | ({AWREADY, WREADY, BVALID, BRESP, ARREADY, RVALID, RDATA, RRESP} == 0))'
5199-"axi_bus_if.sv", 40: tb_top.bus_if.checkrst: started at 7135000ps failed at 7135000ps
5200-	Offending '((!rst) | ({AWREADY, WREADY, BVALID, BRESP, ARREADY, RVALID, RDATA, RRESP} == 0))'
5201-UVM_INFO axi_scoreboard.sv(98) @ 71350: uvm_test_top.env.sb [AXI_SB] CHECK PASS
5202-UVM_INFO axi_base_seq.sv(24) @ 71350: uvm_test_top.env.wr_agt.sqr@@wr [SEQ] AWADDR=106, AWPROT=0, AWVALID=1, WDATA=2358978769, WSTRB=1110, WVALID=1, ARADDR=201, ARPROT=0, ARVALID=0, RREADY=1
5203-"axi_bus_if.sv", 44: tb_top.bus_if.asyncrst: started at 7140000ps failed at 7140000ps
5204-	Offending '((!rst) | ({AWREADY, WREADY, BVALID, BRESP, ARREADY, RVALID, RDATA, RRESP} == 0))'
5205-"axi_bus_if.sv", 40: tb_top.bus_if.checkrst: started at 7145000ps failed at 7145000ps
5206-	Offending '((!rst) | ({AWREADY, WREADY, BVALID, BRESP, ARREADY, RVALID, RDATA, RRESP} == 0))'
5207-UVM_INFO axi_scoreboard.sv(98) @ 71450: uvm_test_top.env.sb [AXI_SB] CHECK PASS
5208-UVM_INFO axi_base_seq.sv(24) @ 71450: uvm_test_top.env.wr_agt.sqr@@rd [SEQ] AWADDR=216, AWPROT=0, AWVALID=0, WDATA=934585027, WSTRB=0, WVALID=0, ARADDR=75, ARPROT=0, ARVALID=1, RREADY=0
5209-"axi_bus_if.sv", 44: tb_top.bus_if.asyncrst: started at 7150000ps failed at 7150000ps
5210-	Offending '((!rst) | ({AWREADY, WREADY, BVALID, BRESP, ARREADY, RVALID, RDATA, RRESP} == 0))'
5211-"axi_bus_if.sv", 40: tb_top.bus_if.checkrst: started at 7155000ps failed at 7155000ps
5212-	Offending '((!rst) | ({AWREADY, WREADY, BVALID, BRESP, ARREADY, RVALID, RDATA, RRESP} == 0))'
5213-UVM_INFO axi_scoreboard.sv(98) @ 71550: uvm_test_top.env.sb [AXI_SB] CHECK PASS
5214-UVM_INFO axi_base_seq.sv(24) @ 71550: uvm_test_top.env.wr_agt.sqr@@wr1 [SEQ] AWADDR=232, AWPROT=0, AWVALID=0, WDATA=1164572856, WSTRB=111, WVALID=0, ARADDR=70, ARPROT=0, ARVALID=0, RREADY=1
5215-"axi_bus_if.sv", 44: tb_top.bus_if.asyncrst: started at 7160000ps failed at 7160000ps
5216-	Offending '((!rst) | ({AWREADY, WREADY, BVALID, BRESP, ARREADY, RVALID, RDATA, RRESP} == 0))'
5217-"axi_bus_if.sv", 40: tb_top.bus_if.checkrst: started at 7165000ps failed at 7165000ps
5218-	Offending '((!rst) | ({AWREADY, WREADY, BVALID, BRESP, ARREADY, RVALID, RDATA, RRESP} == 0))'
5219-UVM_INFO axi_scoreboard.sv(98) @ 71650: uvm_test_top.env.sb [AXI_SB] CHECK PASS
5220-UVM_INFO axi_base_seq.sv(24) @ 71650: uvm_test_top.env.wr_agt.sqr@@rd [SEQ] AWADDR=160, AWPROT=0, AWVALID=0, WDATA=869306167, WSTRB=1000, WVALID=0, ARADDR=121, ARPROT=0, ARVALID=1, RREADY=0
5221-"axi_bus_if.sv", 44: tb_top.bus_if.asyncrst: started at 7170000ps failed at 7170000ps
5222-	Offending '((!rst) | ({AWREADY, WREADY, BVALID, BRESP, ARREADY, RVALID, RDATA, RRESP} == 0))'
5223-"axi_bus_if.sv", 40: tb_top.bus_if.checkrst: started at 7175000ps failed at 7175000ps
5224-	Offending '((!rst) | ({AWREADY, WREADY, BVALID, BRESP, ARREADY, RVALID, RDATA, RRESP} == 0))'
5225-UVM_INFO axi_scoreboard.sv(98) @ 71750: uvm_test_top.env.sb [AXI_SB] CHECK PASS
5226-UVM_INFO axi_base_seq.sv(24) @ 71750: uvm_test_top.env.wr_agt.sqr@@wr_rd [SEQ] AWADDR=202, AWPROT=0, AWVALID=1, WDATA=1825289669, WSTRB=1001, WVALID=1, ARADDR=182, ARPROT=0, ARVALID=1, RREADY=1
5227-"axi_bus_if.sv", 44: tb_top.bus_if.asyncrst: started at 7180000ps failed at 7180000ps
5228-	Offending '((!rst) | ({AWREADY, WREADY, BVALID, BRESP, ARREADY, RVALID, RDATA, RRESP} == 0))'
5229-"axi_bus_if.sv", 40: tb_top.bus_if.checkrst: started at 7185000ps failed at 7185000ps
5230-	Offending '((!rst) | ({AWREADY, WREADY, BVALID, BRESP, ARREADY, RVALID, RDATA, RRESP} == 0))'
5231-UVM_INFO axi_scoreboard.sv(98) @ 71850: uvm_test_top.env.sb [AXI_SB] CHECK PASS
5232:UVM_INFO axi_base_seq.sv(24) @ 71850: uvm_test_top.env.wr_agt.sqr@@main_seq [SEQ] AWADDR=76, AWPROT=0, AWVALID=0, WDATA=2910775161, WSTRB=11, WVALID=1, ARADDR=80, ARPROT=0, ARVALID=1, RREADY=1
5233-"axi_bus_if.sv", 44: tb_top.bus_if.asyncrst: started at 7190000ps failed at 7190000ps
5234-	Offending '((!rst) | ({AWREADY, WREADY, BVALID, BRESP, ARREADY, RVALID, RDATA, RRESP} == 0))'
5235-"axi_bus_if.sv", 40: tb_top.bus_if.checkrst: started at 7195000ps failed at 7195000ps
5236-	Offending '((!rst) | ({AWREADY, WREADY, BVALID, BRESP, ARREADY, RVALID, RDATA, RRESP} == 0))'
5237-UVM_INFO axi_scoreboard.sv(98) @ 71950: uvm_test_top.env.sb [AXI_SB] CHECK PASS
5238-UVM_INFO axi_base_seq.sv(24) @ 71950: uvm_test_top.env.wr_agt.sqr@@wr [SEQ] AWADDR=197, AWPROT=0, AWVALID=1, WDATA=1948240873, WSTRB=11, WVALID=1, ARADDR=201, ARPROT=0, ARVALID=0, RREADY=1
5239-"axi_bus_if.sv", 44: tb_top.bus_if.asyncrst: started at 7200000ps failed at 7200000ps
5240-	Offending '((!rst) | ({AWREADY, WREADY, BVALID, BRESP, ARREADY, RVALID, RDATA, RRESP} == 0))'
5241-"axi_bus_if.sv", 40: tb_top.bus_if.checkrst: started at 7205000ps failed at 7205000ps
5242-	Offending '((!rst) | ({AWREADY, WREADY, BVALID, BRESP, ARREADY, RVALID, RDATA, RRESP} == 0))'
5243-UVM_INFO axi_scoreboard.sv(98) @ 72050: uvm_test_top.env.sb [AXI_SB] CHECK PASS
5244-UVM_INFO axi_base_seq.sv(24) @ 72050: uvm_test_top.env.wr_agt.sqr@@rd [SEQ] AWADDR=216, AWPROT=0, AWVALID=0, WDATA=934585027, WSTRB=0, WVALID=0, ARADDR=249, ARPROT=0, ARVALID=1, RREADY=1
5245-"axi_bus_if.sv", 44: tb_top.bus_if.asyncrst: started at 7210000ps failed at 7210000ps
5246-	Offending '((!rst) | ({AWREADY, WREADY, BVALID, BRESP, ARREADY, RVALID, RDATA, RRESP} == 0))'
5247-"axi_bus_if.sv", 40: tb_top.bus_if.checkrst: started at 7215000ps failed at 7215000ps
5248-	Offending '((!rst) | ({AWREADY, WREADY, BVALID, BRESP, ARREADY, RVALID, RDATA, RRESP} == 0))'
5249-UVM_INFO axi_scoreboard.sv(98) @ 72150: uvm_test_top.env.sb [AXI_SB] CHECK PASS
5250-UVM_INFO axi_base_seq.sv(24) @ 72150: uvm_test_top.env.wr_agt.sqr@@wr1 [SEQ] AWADDR=232, AWPROT=0, AWVALID=0, WDATA=1164572856, WSTRB=111, WVALID=0, ARADDR=70, ARPROT=0, ARVALID=0, RREADY=0
5251-"axi_bus_if.sv", 44: tb_top.bus_if.asyncrst: started at 7220000ps failed at 7220000ps
5252-	Offending '((!rst) | ({AWREADY, WREADY, BVALID, BRESP, ARREADY, RVALID, RDATA, RRESP} == 0))'
--
6520-	Offending '((!rst) | ({AWREADY, WREADY, BVALID, BRESP, ARREADY, RVALID, RDATA, RRESP} == 0))'
6521-UVM_INFO axi_scoreboard.sv(98) @ 93350: uvm_test_top.env.sb [AXI_SB] CHECK PASS
6522-UVM_INFO axi_base_seq.sv(24) @ 93350: uvm_test_top.env.wr_agt.sqr@@wr_rd [SEQ] AWADDR=174, AWPROT=0, AWVALID=1, WDATA=1518545433, WSTRB=110, WVALID=1, ARADDR=127, ARPROT=0, ARVALID=1, RREADY=1
6523-"axi_bus_if.sv", 44: tb_top.bus_if.asyncrst: started at 9340000ps failed at 9340000ps
6524-	Offending '((!rst) | ({AWREADY, WREADY, BVALID, BRESP, ARREADY, RVALID, RDATA, RRESP} == 0))'
6525-"axi_bus_if.sv", 40: tb_top.bus_if.checkrst: started at 9345000ps failed at 9345000ps
6526-	Offending '((!rst) | ({AWREADY, WREADY, BVALID, BRESP, ARREADY, RVALID, RDATA, RRESP} == 0))'
6527-UVM_INFO axi_scoreboard.sv(98) @ 93450: uvm_test_top.env.sb [AXI_SB] CHECK PASS
6528-UVM_INFO axi_base_seq.sv(24) @ 93450: uvm_test_top.env.wr_agt.sqr@@main_seq [SEQ] AWADDR=218, AWPROT=0, AWVALID=1, WDATA=4167029533, WSTRB=0, WVALID=0, ARADDR=249, ARPROT=0, ARVALID=0, RREADY=1
6529-"axi_bus_if.sv", 44: tb_top.bus_if.asyncrst: started at 9350000ps failed at 9350000ps
6530-	Offending '((!rst) | ({AWREADY, WREADY, BVALID, BRESP, ARREADY, RVALID, RDATA, RRESP} == 0))'
6531-"axi_bus_if.sv", 40: tb_top.bus_if.checkrst: started at 9355000ps failed at 9355000ps
6532-	Offending '((!rst) | ({AWREADY, WREADY, BVALID, BRESP, ARREADY, RVALID, RDATA, RRESP} == 0))'
6533-UVM_INFO axi_scoreboard.sv(98) @ 93550: uvm_test_top.env.sb [AXI_SB] CHECK PASS
6534-UVM_INFO axi_base_seq.sv(24) @ 93550: uvm_test_top.env.wr_agt.sqr@@wr [SEQ] AWADDR=129, AWPROT=0, AWVALID=1, WDATA=2403882188, WSTRB=101, WVALID=1, ARADDR=201, ARPROT=0, ARVALID=0, RREADY=0
6535-"axi_bus_if.sv", 44: tb_top.bus_if.asyncrst: started at 9360000ps failed at 9360000ps
6536-	Offending '((!rst) | ({AWREADY, WREADY, BVALID, BRESP, ARREADY, RVALID, RDATA, RRESP} == 0))'
6537-"axi_bus_if.sv", 40: tb_top.bus_if.checkrst: started at 9365000ps failed at 9365000ps
6538-	Offending '((!rst) | ({AWREADY, WREADY, BVALID, BRESP, ARREADY, RVALID, RDATA, RRESP} == 0))'
6539-UVM_INFO axi_scoreboard.sv(98) @ 93650: uvm_test_top.env.sb [AXI_SB] CHECK PASS
6540:UVM_INFO axi_base_seq.sv(24) @ 93650: uvm_test_top.env.wr_agt.sqr@@rd [SEQ] AWADDR=216, AWPROT=0, AWVALID=0, WDATA=934585027, WSTRB=0, WVALID=0, ARADDR=84, ARPROT=0, ARVALID=1, RREADY=1
6541-"axi_bus_if.sv", 44: tb_top.bus_if.asyncrst: started at 9370000ps failed at 9370000ps
6542-	Offending '((!rst) | ({AWREADY, WREADY, BVALID, BRESP, ARREADY, RVALID, RDATA, RRESP} == 0))'
6543-"axi_bus_if.sv", 40: tb_top.bus_if.checkrst: started at 9375000ps failed at 9375000ps
6544-	Offending '((!rst) | ({AWREADY, WREADY, BVALID, BRESP, ARREADY, RVALID, RDATA, RRESP} == 0))'
6545-UVM_INFO axi_scoreboard.sv(98) @ 93750: uvm_test_top.env.sb [AXI_SB] CHECK PASS
6546-UVM_INFO axi_base_seq.sv(24) @ 93750: uvm_test_top.env.wr_agt.sqr@@wr1 [SEQ] AWADDR=232, AWPROT=0, AWVALID=0, WDATA=1164572856, WSTRB=111, WVALID=0, ARADDR=70, ARPROT=0, ARVALID=0, RREADY=1
6547-"axi_bus_if.sv", 44: tb_top.bus_if.asyncrst: started at 9380000ps failed at 9380000ps
6548-	Offending '((!rst) | ({AWREADY, WREADY, BVALID, BRESP, ARREADY, RVALID, RDATA, RRESP} == 0))'
6549-"axi_bus_if.sv", 40: tb_top.bus_if.checkrst: started at 9385000ps failed at 9385000ps
6550-	Offending '((!rst) | ({AWREADY, WREADY, BVALID, BRESP, ARREADY, RVALID, RDATA, RRESP} == 0))'
6551-UVM_INFO axi_scoreboard.sv(98) @ 93850: uvm_test_top.env.sb [AXI_SB] CHECK PASS
6552-UVM_INFO axi_base_seq.sv(24) @ 93850: uvm_test_top.env.wr_agt.sqr@@rd [SEQ] AWADDR=160, AWPROT=0, AWVALID=0, WDATA=869306167, WSTRB=1000, WVALID=0, ARADDR=68, ARPROT=0, ARVALID=1, RREADY=0
6553-"axi_bus_if.sv", 44: tb_top.bus_if.asyncrst: started at 9390000ps failed at 9390000ps
6554-	Offending '((!rst) | ({AWREADY, WREADY, BVALID, BRESP, ARREADY, RVALID, RDATA, RRESP} == 0))'
6555-"axi_bus_if.sv", 40: tb_top.bus_if.checkrst: started at 9395000ps failed at 9395000ps
6556-	Offending '((!rst) | ({AWREADY, WREADY, BVALID, BRESP, ARREADY, RVALID, RDATA, RRESP} == 0))'
6557-UVM_INFO axi_scoreboard.sv(98) @ 93950: uvm_test_top.env.sb [AXI_SB] CHECK PASS
6558-UVM_INFO axi_base_seq.sv(24) @ 93950: uvm_test_top.env.wr_agt.sqr@@wr_rd [SEQ] AWADDR=174, AWPROT=0, AWVALID=1, WDATA=1518545433, WSTRB=110, WVALID=1, ARADDR=127, ARPROT=0, ARVALID=1, RREADY=1
6559-"axi_bus_if.sv", 44: tb_top.bus_if.asyncrst: started at 9400000ps failed at 9400000ps
6560-	Offending '((!rst) | ({AWREADY, WREADY, BVALID, BRESP, ARREADY, RVALID, RDATA, RRESP} == 0))'
6561-"axi_bus_if.sv", 40: tb_top.bus_if.checkrst: started at 9405000ps failed at 9405000ps
6562-	Offending '((!rst) | ({AWREADY, WREADY, BVALID, BRESP, ARREADY, RVALID, RDATA, RRESP} == 0))'
6563-UVM_INFO axi_scoreboard.sv(98) @ 94050: uvm_test_top.env.sb [AXI_SB] CHECK PASS
6564-UVM_INFO axi_base_seq.sv(24) @ 94050: uvm_test_top.env.wr_agt.sqr@@main_seq [SEQ] AWADDR=218, AWPROT=0, AWVALID=1, WDATA=4167029533, WSTRB=0, WVALID=0, ARADDR=249, ARPROT=0, ARVALID=0, RREADY=1
6565-"axi_bus_if.sv", 44: tb_top.bus_if.asyncrst: started at 9410000ps failed at 9410000ps
6566-	Offending '((!rst) | ({AWREADY, WREADY, BVALID, BRESP, ARREADY, RVALID, RDATA, RRESP} == 0))'
6567-"axi_bus_if.sv", 40: tb_top.bus_if.checkrst: started at 9415000ps failed at 9415000ps
6568-	Offending '((!rst) | ({AWREADY, WREADY, BVALID, BRESP, ARREADY, RVALID, RDATA, RRESP} == 0))'
6569-UVM_INFO axi_scoreboard.sv(98) @ 94150: uvm_test_top.env.sb [AXI_SB] CHECK PASS
6570-UVM_INFO axi_base_seq.sv(24) @ 94150: uvm_test_top.env.wr_agt.sqr@@wr [SEQ] AWADDR=129, AWPROT=0, AWVALID=1, WDATA=2403882188, WSTRB=101, WVALID=1, ARADDR=201, ARPROT=0, ARVALID=0, RREADY=1
6571-"axi_bus_if.sv", 44: tb_top.bus_if.asyncrst: started at 9420000ps failed at 9420000ps
6572-	Offending '((!rst) | ({AWREADY, WREADY, BVALID, BRESP, ARREADY, RVALID, RDATA, RRESP} == 0))'
6573-"axi_bus_if.sv", 40: tb_top.bus_if.checkrst: started at 9425000ps failed at 9425000ps
6574-	Offending '((!rst) | ({AWREADY, WREADY, BVALID, BRESP, ARREADY, RVALID, RDATA, RRESP} == 0))'
6575-UVM_INFO axi_scoreboard.sv(98) @ 94250: uvm_test_top.env.sb [AXI_SB] CHECK PASS
6576:UVM_INFO axi_base_seq.sv(24) @ 94250: uvm_test_top.env.wr_agt.sqr@@rd [SEQ] AWADDR=216, AWPROT=0, AWVALID=0, WDATA=934585027, WSTRB=0, WVALID=0, ARADDR=84, ARPROT=0, ARVALID=1, RREADY=0
6577-"axi_bus_if.sv", 44: tb_top.bus_if.asyncrst: started at 9430000ps failed at 9430000ps
6578-	Offending '((!rst) | ({AWREADY, WREADY, BVALID, BRESP, ARREADY, RVALID, RDATA, RRESP} == 0))'
6579-"axi_bus_if.sv", 40: tb_top.bus_if.checkrst: started at 9435000ps failed at 9435000ps
6580-	Offending '((!rst) | ({AWREADY, WREADY, BVALID, BRESP, ARREADY, RVALID, RDATA, RRESP} == 0))'
6581-UVM_INFO axi_scoreboard.sv(98) @ 94350: uvm_test_top.env.sb [AXI_SB] CHECK PASS
6582-UVM_INFO axi_base_seq.sv(24) @ 94350: uvm_test_top.env.wr_agt.sqr@@wr1 [SEQ] AWADDR=232, AWPROT=0, AWVALID=1, WDATA=1164572856, WSTRB=111, WVALID=0, ARADDR=70, ARPROT=0, ARVALID=0, RREADY=1
6583-"axi_bus_if.sv", 44: tb_top.bus_if.asyncrst: started at 9440000ps failed at 9440000ps
6584-	Offending '((!rst) | ({AWREADY, WREADY, BVALID, BRESP, ARREADY, RVALID, RDATA, RRESP} == 0))'
6585-"axi_bus_if.sv", 40: tb_top.bus_if.checkrst: started at 9445000ps failed at 9445000ps
6586-	Offending '((!rst) | ({AWREADY, WREADY, BVALID, BRESP, ARREADY, RVALID, RDATA, RRESP} == 0))'
6587-UVM_INFO axi_scoreboard.sv(98) @ 94450: uvm_test_top.env.sb [AXI_SB] CHECK PASS
6588-UVM_INFO axi_base_seq.sv(24) @ 94450: uvm_test_top.env.wr_agt.sqr@@rd [SEQ] AWADDR=160, AWPROT=0, AWVALID=0, WDATA=869306167, WSTRB=1000, WVALID=0, ARADDR=68, ARPROT=0, ARVALID=1, RREADY=1
6589-"axi_bus_if.sv", 44: tb_top.bus_if.asyncrst: started at 9450000ps failed at 9450000ps
6590-	Offending '((!rst) | ({AWREADY, WREADY, BVALID, BRESP, ARREADY, RVALID, RDATA, RRESP} == 0))'
6591-"axi_bus_if.sv", 40: tb_top.bus_if.checkrst: started at 9455000ps failed at 9455000ps
6592-	Offending '((!rst) | ({AWREADY, WREADY, BVALID, BRESP, ARREADY, RVALID, RDATA, RRESP} == 0))'
6593-UVM_INFO axi_scoreboard.sv(98) @ 94550: uvm_test_top.env.sb [AXI_SB] CHECK PASS
6594-UVM_INFO axi_base_seq.sv(24) @ 94550: uvm_test_top.env.wr_agt.sqr@@wr_rd [SEQ] AWADDR=162, AWPROT=0, AWVALID=1, WDATA=2670620333, WSTRB=1110, WVALID=1, ARADDR=127, ARPROT=0, ARVALID=1, RREADY=1
6595-"axi_bus_if.sv", 44: tb_top.bus_if.asyncrst: started at 9460000ps failed at 9460000ps
6596-	Offending '((!rst) | ({AWREADY, WREADY, BVALID, BRESP, ARREADY, RVALID, RDATA, RRESP} == 0))'
6597-"axi_bus_if.sv", 40: tb_top.bus_if.checkrst: started at 9465000ps failed at 9465000ps
6598-	Offending '((!rst) | ({AWREADY, WREADY, BVALID, BRESP, ARREADY, RVALID, RDATA, RRESP} == 0))'
6599-UVM_INFO axi_scoreboard.sv(98) @ 94650: uvm_test_top.env.sb [AXI_SB] CHECK PASS
6600-UVM_INFO axi_base_seq.sv(24) @ 94650: uvm_test_top.env.wr_agt.sqr@@main_seq [SEQ] AWADDR=127, AWPROT=0, AWVALID=0, WDATA=4167029533, WSTRB=0, WVALID=1, ARADDR=249, ARPROT=0, ARVALID=1, RREADY=1
6601-"axi_bus_if.sv", 44: tb_top.bus_if.asyncrst: started at 9470000ps failed at 9470000ps
6602-	Offending '((!rst) | ({AWREADY, WREADY, BVALID, BRESP, ARREADY, RVALID, RDATA, RRESP} == 0))'
6603-"axi_bus_if.sv", 40: tb_top.bus_if.checkrst: started at 9475000ps failed at 9475000ps
6604-	Offending '((!rst) | ({AWREADY, WREADY, BVALID, BRESP, ARREADY, RVALID, RDATA, RRESP} == 0))'
6605-UVM_INFO axi_scoreboard.sv(98) @ 94750: uvm_test_top.env.sb [AXI_SB] CHECK PASS
6606-UVM_INFO axi_base_seq.sv(24) @ 94750: uvm_test_top.env.wr_agt.sqr@@wr [SEQ] AWADDR=129, AWPROT=0, AWVALID=1, WDATA=2403882188, WSTRB=101, WVALID=1, ARADDR=201, ARPROT=0, ARVALID=0, RREADY=0
6607-"axi_bus_if.sv", 44: tb_top.bus_if.asyncrst: started at 9480000ps failed at 9480000ps
6608-	Offending '((!rst) | ({AWREADY, WREADY, BVALID, BRESP, ARREADY, RVALID, RDATA, RRESP} == 0))'
6609-"axi_bus_if.sv", 40: tb_top.bus_if.checkrst: started at 9485000ps failed at 9485000ps
6610-	Offending '((!rst) | ({AWREADY, WREADY, BVALID, BRESP, ARREADY, RVALID, RDATA, RRESP} == 0))'
6611-UVM_INFO axi_scoreboard.sv(98) @ 94850: uvm_test_top.env.sb [AXI_SB] CHECK PASS
6612:UVM_INFO axi_base_seq.sv(24) @ 94850: uvm_test_top.env.wr_agt.sqr@@rd [SEQ] AWADDR=216, AWPROT=0, AWVALID=0, WDATA=934585027, WSTRB=0, WVALID=0, ARADDR=84, ARPROT=0, ARVALID=1, RREADY=1
6613-"axi_bus_if.sv", 44: tb_top.bus_if.asyncrst: started at 9490000ps failed at 9490000ps
6614-	Offending '((!rst) | ({AWREADY, WREADY, BVALID, BRESP, ARREADY, RVALID, RDATA, RRESP} == 0))'
6615-"axi_bus_if.sv", 40: tb_top.bus_if.checkrst: started at 9495000ps failed at 9495000ps
6616-	Offending '((!rst) | ({AWREADY, WREADY, BVALID, BRESP, ARREADY, RVALID, RDATA, RRESP} == 0))'
6617-UVM_INFO axi_scoreboard.sv(98) @ 94950: uvm_test_top.env.sb [AXI_SB] CHECK PASS
6618-UVM_INFO axi_base_seq.sv(24) @ 94950: uvm_test_top.env.wr_agt.sqr@@wr1 [SEQ] AWADDR=232, AWPROT=0, AWVALID=0, WDATA=1164572856, WSTRB=111, WVALID=0, ARADDR=70, ARPROT=0, ARVALID=0, RREADY=1
6619-"axi_bus_if.sv", 44: tb_top.bus_if.asyncrst: started at 9500000ps failed at 9500000ps
6620-	Offending '((!rst) | ({AWREADY, WREADY, BVALID, BRESP, ARREADY, RVALID, RDATA, RRESP} == 0))'
6621-"axi_bus_if.sv", 40: tb_top.bus_if.checkrst: started at 9505000ps failed at 9505000ps
6622-	Offending '((!rst) | ({AWREADY, WREADY, BVALID, BRESP, ARREADY, RVALID, RDATA, RRESP} == 0))'
6623-UVM_INFO axi_scoreboard.sv(98) @ 95050: uvm_test_top.env.sb [AXI_SB] CHECK PASS
6624-UVM_INFO axi_base_seq.sv(24) @ 95050: uvm_test_top.env.wr_agt.sqr@@rd [SEQ] AWADDR=160, AWPROT=0, AWVALID=0, WDATA=869306167, WSTRB=1000, WVALID=0, ARADDR=68, ARPROT=0, ARVALID=1, RREADY=0
6625-"axi_bus_if.sv", 44: tb_top.bus_if.asyncrst: started at 9510000ps failed at 9510000ps
6626-	Offending '((!rst) | ({AWREADY, WREADY, BVALID, BRESP, ARREADY, RVALID, RDATA, RRESP} == 0))'
6627-"axi_bus_if.sv", 40: tb_top.bus_if.checkrst: started at 9515000ps failed at 9515000ps
6628-	Offending '((!rst) | ({AWREADY, WREADY, BVALID, BRESP, ARREADY, RVALID, RDATA, RRESP} == 0))'
6629-UVM_INFO axi_scoreboard.sv(98) @ 95150: uvm_test_top.env.sb [AXI_SB] CHECK PASS
6630-UVM_INFO axi_base_seq.sv(24) @ 95150: uvm_test_top.env.wr_agt.sqr@@wr_rd [SEQ] AWADDR=86, AWPROT=0, AWVALID=1, WDATA=1899312650, WSTRB=100, WVALID=1, ARADDR=127, ARPROT=0, ARVALID=1, RREADY=1
6631-"axi_bus_if.sv", 44: tb_top.bus_if.asyncrst: started at 9520000ps failed at 9520000ps
6632-	Offending '((!rst) | ({AWREADY, WREADY, BVALID, BRESP, ARREADY, RVALID, RDATA, RRESP} == 0))'
6633-"axi_bus_if.sv", 40: tb_top.bus_if.checkrst: started at 9525000ps failed at 9525000ps
6634-	Offending '((!rst) | ({AWREADY, WREADY, BVALID, BRESP, ARREADY, RVALID, RDATA, RRESP} == 0))'
6635-UVM_INFO axi_scoreboard.sv(98) @ 95250: uvm_test_top.env.sb [AXI_SB] CHECK PASS
6636-UVM_INFO axi_base_seq.sv(24) @ 95250: uvm_test_top.env.wr_agt.sqr@@main_seq [SEQ] AWADDR=127, AWPROT=0, AWVALID=0, WDATA=3240782479, WSTRB=1011, WVALID=0, ARADDR=236, ARPROT=0, ARVALID=1, RREADY=1
6637-"axi_bus_if.sv", 44: tb_top.bus_if.asyncrst: started at 9530000ps failed at 9530000ps
6638-	Offending '((!rst) | ({AWREADY, WREADY, BVALID, BRESP, ARREADY, RVALID, RDATA, RRESP} == 0))'
6639-"axi_bus_if.sv", 40: tb_top.bus_if.checkrst: started at 9535000ps failed at 9535000ps
6640-	Offending '((!rst) | ({AWREADY, WREADY, BVALID, BRESP, ARREADY, RVALID, RDATA, RRESP} == 0))'
6641-UVM_INFO axi_scoreboard.sv(98) @ 95350: uvm_test_top.env.sb [AXI_SB] CHECK PASS
6642-UVM_INFO axi_base_seq.sv(24) @ 95350: uvm_test_top.env.wr_agt.sqr@@wr [SEQ] AWADDR=129, AWPROT=0, AWVALID=1, WDATA=2403882188, WSTRB=101, WVALID=1, ARADDR=201, ARPROT=0, ARVALID=0, RREADY=1
6643-"axi_bus_if.sv", 44: tb_top.bus_if.asyncrst: started at 9540000ps failed at 9540000ps
6644-	Offending '((!rst) | ({AWREADY, WREADY, BVALID, BRESP, ARREADY, RVALID, RDATA, RRESP} == 0))'
6645-"axi_bus_if.sv", 40: tb_top.bus_if.checkrst: started at 9545000ps failed at 9545000ps
6646-	Offending '((!rst) | ({AWREADY, WREADY, BVALID, BRESP, ARREADY, RVALID, RDATA, RRESP} == 0))'
6647-UVM_INFO axi_scoreboard.sv(98) @ 95450: uvm_test_top.env.sb [AXI_SB] CHECK PASS
6648:UVM_INFO axi_base_seq.sv(24) @ 95450: uvm_test_top.env.wr_agt.sqr@@rd [SEQ] AWADDR=216, AWPROT=0, AWVALID=0, WDATA=934585027, WSTRB=0, WVALID=0, ARADDR=84, ARPROT=0, ARVALID=1, RREADY=0
6649-"axi_bus_if.sv", 44: tb_top.bus_if.asyncrst: started at 9550000ps failed at 9550000ps
6650-	Offending '((!rst) | ({AWREADY, WREADY, BVALID, BRESP, ARREADY, RVALID, RDATA, RRESP} == 0))'
6651-"axi_bus_if.sv", 40: tb_top.bus_if.checkrst: started at 9555000ps failed at 9555000ps
6652-	Offending '((!rst) | ({AWREADY, WREADY, BVALID, BRESP, ARREADY, RVALID, RDATA, RRESP} == 0))'
6653-UVM_INFO axi_scoreboard.sv(98) @ 95550: uvm_test_top.env.sb [AXI_SB] CHECK PASS
6654-UVM_INFO axi_base_seq.sv(24) @ 95550: uvm_test_top.env.wr_agt.sqr@@wr1 [SEQ] AWADDR=232, AWPROT=0, AWVALID=0, WDATA=1164572856, WSTRB=111, WVALID=0, ARADDR=70, ARPROT=0, ARVALID=0, RREADY=1
6655-"axi_bus_if.sv", 44: tb_top.bus_if.asyncrst: started at 9560000ps failed at 9560000ps
6656-	Offending '((!rst) | ({AWREADY, WREADY, BVALID, BRESP, ARREADY, RVALID, RDATA, RRESP} == 0))'
6657-"axi_bus_if.sv", 40: tb_top.bus_if.checkrst: started at 9565000ps failed at 9565000ps
6658-	Offending '((!rst) | ({AWREADY, WREADY, BVALID, BRESP, ARREADY, RVALID, RDATA, RRESP} == 0))'
6659-UVM_INFO axi_scoreboard.sv(98) @ 95650: uvm_test_top.env.sb [AXI_SB] CHECK PASS
6660-UVM_INFO axi_base_seq.sv(24) @ 95650: uvm_test_top.env.wr_agt.sqr@@rd [SEQ] AWADDR=160, AWPROT=0, AWVALID=0, WDATA=869306167, WSTRB=1000, WVALID=0, ARADDR=68, ARPROT=0, ARVALID=1, RREADY=1
6661-"axi_bus_if.sv", 44: tb_top.bus_if.asyncrst: started at 9570000ps failed at 9570000ps
6662-	Offending '((!rst) | ({AWREADY, WREADY, BVALID, BRESP, ARREADY, RVALID, RDATA, RRESP} == 0))'
6663-"axi_bus_if.sv", 40: tb_top.bus_if.checkrst: started at 9575000ps failed at 9575000ps
6664-	Offending '((!rst) | ({AWREADY, WREADY, BVALID, BRESP, ARREADY, RVALID, RDATA, RRESP} == 0))'
6665-UVM_INFO axi_scoreboard.sv(98) @ 95750: uvm_test_top.env.sb [AXI_SB] CHECK PASS
6666-UVM_INFO axi_base_seq.sv(24) @ 95750: uvm_test_top.env.wr_agt.sqr@@wr_rd [SEQ] AWADDR=217, AWPROT=0, AWVALID=1, WDATA=2723446764, WSTRB=1011, WVALID=1, ARADDR=127, ARPROT=0, ARVALID=1, RREADY=1
6667-"axi_bus_if.sv", 44: tb_top.bus_if.asyncrst: started at 9580000ps failed at 9580000ps
6668-	Offending '((!rst) | ({AWREADY, WREADY, BVALID, BRESP, ARREADY, RVALID, RDATA, RRESP} == 0))'
6669-"axi_bus_if.sv", 40: tb_top.bus_if.checkrst: started at 9585000ps failed at 9585000ps
6670-	Offending '((!rst) | ({AWREADY, WREADY, BVALID, BRESP, ARREADY, RVALID, RDATA, RRESP} == 0))'
6671-UVM_INFO axi_scoreboard.sv(98) @ 95850: uvm_test_top.env.sb [AXI_SB] CHECK PASS
6672-UVM_INFO axi_base_seq.sv(24) @ 95850: uvm_test_top.env.wr_agt.sqr@@main_seq [SEQ] AWADDR=127, AWPROT=0, AWVALID=0, WDATA=3240782479, WSTRB=1011, WVALID=0, ARADDR=165, ARPROT=0, ARVALID=1, RREADY=0
6673-"axi_bus_if.sv", 44: tb_top.bus_if.asyncrst: started at 9590000ps failed at 9590000ps
6674-	Offending '((!rst) | ({AWREADY, WREADY, BVALID, BRESP, ARREADY, RVALID, RDATA, RRESP} == 0))'
6675-"axi_bus_if.sv", 40: tb_top.bus_if.checkrst: started at 9595000ps failed at 9595000ps
6676-	Offending '((!rst) | ({AWREADY, WREADY, BVALID, BRESP, ARREADY, RVALID, RDATA, RRESP} == 0))'
6677-UVM_INFO axi_scoreboard.sv(98) @ 95950: uvm_test_top.env.sb [AXI_SB] CHECK PASS
6678-UVM_INFO axi_base_seq.sv(24) @ 95950: uvm_test_top.env.wr_agt.sqr@@wr [SEQ] AWADDR=78, AWPROT=0, AWVALID=1, WDATA=1691754627, WSTRB=11, WVALID=1, ARADDR=201, ARPROT=0, ARVALID=0, RREADY=0
6679-"axi_bus_if.sv", 44: tb_top.bus_if.asyncrst: started at 9600000ps failed at 9600000ps
6680-	Offending '((!rst) | ({AWREADY, WREADY, BVALID, BRESP, ARREADY, RVALID, RDATA, RRESP} == 0))'
6681-"axi_bus_if.sv", 40: tb_top.bus_if.checkrst: started at 9605000ps failed at 9605000ps
6682-	Offending '((!rst) | ({AWREADY, WREADY, BVALID, BRESP, ARREADY, RVALID, RDATA, RRESP} == 0))'
6683-UVM_INFO axi_scoreboard.sv(98) @ 96050: uvm_test_top.env.sb [AXI_SB] CHECK PASS
6684:UVM_INFO axi_base_seq.sv(24) @ 96050: uvm_test_top.env.wr_agt.sqr@@rd [SEQ] AWADDR=216, AWPROT=0, AWVALID=0, WDATA=934585027, WSTRB=0, WVALID=0, ARADDR=84, ARPROT=0, ARVALID=1, RREADY=0
6685-"axi_bus_if.sv", 44: tb_top.bus_if.asyncrst: started at 9610000ps failed at 9610000ps
6686-	Offending '((!rst) | ({AWREADY, WREADY, BVALID, BRESP, ARREADY, RVALID, RDATA, RRESP} == 0))'
6687-"axi_bus_if.sv", 40: tb_top.bus_if.checkrst: started at 9615000ps failed at 9615000ps
6688-	Offending '((!rst) | ({AWREADY, WREADY, BVALID, BRESP, ARREADY, RVALID, RDATA, RRESP} == 0))'
6689-UVM_INFO axi_scoreboard.sv(98) @ 96150: uvm_test_top.env.sb [AXI_SB] CHECK PASS
6690-UVM_INFO axi_base_seq.sv(24) @ 96150: uvm_test_top.env.wr_agt.sqr@@wr1 [SEQ] AWADDR=232, AWPROT=0, AWVALID=0, WDATA=1164572856, WSTRB=111, WVALID=0, ARADDR=70, ARPROT=0, ARVALID=0, RREADY=0
6691-"axi_bus_if.sv", 44: tb_top.bus_if.asyncrst: started at 9620000ps failed at 9620000ps
6692-	Offending '((!rst) | ({AWREADY, WREADY, BVALID, BRESP, ARREADY, RVALID, RDATA, RRESP} == 0))'
6693-"axi_bus_if.sv", 40: tb_top.bus_if.checkrst: started at 9625000ps failed at 9625000ps
6694-	Offending '((!rst) | ({AWREADY, WREADY, BVALID, BRESP, ARREADY, RVALID, RDATA, RRESP} == 0))'
6695-UVM_INFO axi_scoreboard.sv(98) @ 96250: uvm_test_top.env.sb [AXI_SB] CHECK PASS
6696-UVM_INFO axi_base_seq.sv(24) @ 96250: uvm_test_top.env.wr_agt.sqr@@rd [SEQ] AWADDR=160, AWPROT=0, AWVALID=0, WDATA=869306167, WSTRB=1000, WVALID=0, ARADDR=68, ARPROT=0, ARVALID=1, RREADY=1
6697-"axi_bus_if.sv", 44: tb_top.bus_if.asyncrst: started at 9630000ps failed at 9630000ps
6698-	Offending '((!rst) | ({AWREADY, WREADY, BVALID, BRESP, ARREADY, RVALID, RDATA, RRESP} == 0))'
6699-"axi_bus_if.sv", 40: tb_top.bus_if.checkrst: started at 9635000ps failed at 9635000ps
6700-	Offending '((!rst) | ({AWREADY, WREADY, BVALID, BRESP, ARREADY, RVALID, RDATA, RRESP} == 0))'
6701-UVM_INFO axi_scoreboard.sv(98) @ 96350: uvm_test_top.env.sb [AXI_SB] CHECK PASS
6702-UVM_INFO axi_base_seq.sv(24) @ 96350: uvm_test_top.env.wr_agt.sqr@@wr_rd [SEQ] AWADDR=217, AWPROT=0, AWVALID=1, WDATA=2723446764, WSTRB=1011, WVALID=1, ARADDR=127, ARPROT=0, ARVALID=1, RREADY=1
6703-"axi_bus_if.sv", 44: tb_top.bus_if.asyncrst: started at 9640000ps failed at 9640000ps
6704-	Offending '((!rst) | ({AWREADY, WREADY, BVALID, BRESP, ARREADY, RVALID, RDATA, RRESP} == 0))'
6705-"axi_bus_if.sv", 40: tb_top.bus_if.checkrst: started at 9645000ps failed at 9645000ps
6706-	Offending '((!rst) | ({AWREADY, WREADY, BVALID, BRESP, ARREADY, RVALID, RDATA, RRESP} == 0))'
6707-UVM_INFO axi_scoreboard.sv(98) @ 96450: uvm_test_top.env.sb [AXI_SB] CHECK PASS
6708-UVM_INFO axi_base_seq.sv(24) @ 96450: uvm_test_top.env.wr_agt.sqr@@main_seq [SEQ] AWADDR=127, AWPROT=0, AWVALID=0, WDATA=3240782479, WSTRB=1011, WVALID=1, ARADDR=101, ARPROT=0, ARVALID=0, RREADY=0
6709-"axi_bus_if.sv", 44: tb_top.bus_if.asyncrst: started at 9650000ps failed at 9650000ps
6710-	Offending '((!rst) | ({AWREADY, WREADY, BVALID, BRESP, ARREADY, RVALID, RDATA, RRESP} == 0))'
6711-"axi_bus_if.sv", 40: tb_top.bus_if.checkrst: started at 9655000ps failed at 9655000ps
6712-	Offending '((!rst) | ({AWREADY, WREADY, BVALID, BRESP, ARREADY, RVALID, RDATA, RRESP} == 0))'
6713-UVM_INFO axi_scoreboard.sv(98) @ 96550: uvm_test_top.env.sb [AXI_SB] CHECK PASS
6714-UVM_INFO axi_base_seq.sv(24) @ 96550: uvm_test_top.env.wr_agt.sqr@@wr [SEQ] AWADDR=78, AWPROT=0, AWVALID=1, WDATA=1691754627, WSTRB=11, WVALID=1, ARADDR=201, ARPROT=0, ARVALID=0, RREADY=0
6715-"axi_bus_if.sv", 44: tb_top.bus_if.asyncrst: started at 9660000ps failed at 9660000ps
6716-	Offending '((!rst) | ({AWREADY, WREADY, BVALID, BRESP, ARREADY, RVALID, RDATA, RRESP} == 0))'
6717-"axi_bus_if.sv", 40: tb_top.bus_if.checkrst: started at 9665000ps failed at 9665000ps
6718-	Offending '((!rst) | ({AWREADY, WREADY, BVALID, BRESP, ARREADY, RVALID, RDATA, RRESP} == 0))'
6719-UVM_INFO axi_scoreboard.sv(98) @ 96650: uvm_test_top.env.sb [AXI_SB] CHECK PASS
6720:UVM_INFO axi_base_seq.sv(24) @ 96650: uvm_test_top.env.wr_agt.sqr@@rd [SEQ] AWADDR=216, AWPROT=0, AWVALID=0, WDATA=934585027, WSTRB=0, WVALID=0, ARADDR=84, ARPROT=0, ARVALID=1, RREADY=0
6721-"axi_bus_if.sv", 44: tb_top.bus_if.asyncrst: started at 9670000ps failed at 9670000ps
6722-	Offending '((!rst) | ({AWREADY, WREADY, BVALID, BRESP, ARREADY, RVALID, RDATA, RRESP} == 0))'
6723-"axi_bus_if.sv", 40: tb_top.bus_if.checkrst: started at 9675000ps failed at 9675000ps
6724-	Offending '((!rst) | ({AWREADY, WREADY, BVALID, BRESP, ARREADY, RVALID, RDATA, RRESP} == 0))'
6725-UVM_INFO axi_scoreboard.sv(98) @ 96750: uvm_test_top.env.sb [AXI_SB] CHECK PASS
6726-UVM_INFO axi_base_seq.sv(24) @ 96750: uvm_test_top.env.wr_agt.sqr@@wr1 [SEQ] AWADDR=232, AWPROT=0, AWVALID=1, WDATA=1164572856, WSTRB=111, WVALID=0, ARADDR=70, ARPROT=0, ARVALID=0, RREADY=1
6727-"axi_bus_if.sv", 44: tb_top.bus_if.asyncrst: started at 9680000ps failed at 9680000ps
6728-	Offending '((!rst) | ({AWREADY, WREADY, BVALID, BRESP, ARREADY, RVALID, RDATA, RRESP} == 0))'
6729-"axi_bus_if.sv", 40: tb_top.bus_if.checkrst: started at 9685000ps failed at 9685000ps
6730-	Offending '((!rst) | ({AWREADY, WREADY, BVALID, BRESP, ARREADY, RVALID, RDATA, RRESP} == 0))'
6731-UVM_INFO axi_scoreboard.sv(98) @ 96850: uvm_test_top.env.sb [AXI_SB] CHECK PASS
6732-UVM_INFO axi_base_seq.sv(24) @ 96850: uvm_test_top.env.wr_agt.sqr@@rd [SEQ] AWADDR=160, AWPROT=0, AWVALID=0, WDATA=869306167, WSTRB=1000, WVALID=0, ARADDR=68, ARPROT=0, ARVALID=1, RREADY=0
6733-"axi_bus_if.sv", 44: tb_top.bus_if.asyncrst: started at 9690000ps failed at 9690000ps
6734-	Offending '((!rst) | ({AWREADY, WREADY, BVALID, BRESP, ARREADY, RVALID, RDATA, RRESP} == 0))'
6735-"axi_bus_if.sv", 40: tb_top.bus_if.checkrst: started at 9695000ps failed at 9695000ps
6736-	Offending '((!rst) | ({AWREADY, WREADY, BVALID, BRESP, ARREADY, RVALID, RDATA, RRESP} == 0))'
6737-UVM_INFO axi_scoreboard.sv(98) @ 96950: uvm_test_top.env.sb [AXI_SB] CHECK PASS
6738-UVM_INFO axi_base_seq.sv(24) @ 96950: uvm_test_top.env.wr_agt.sqr@@wr_rd [SEQ] AWADDR=182, AWPROT=0, AWVALID=1, WDATA=2187408303, WSTRB=1110, WVALID=1, ARADDR=127, ARPROT=0, ARVALID=1, RREADY=1
6739-"axi_bus_if.sv", 44: tb_top.bus_if.asyncrst: started at 9700000ps failed at 9700000ps
6740-	Offending '((!rst) | ({AWREADY, WREADY, BVALID, BRESP, ARREADY, RVALID, RDATA, RRESP} == 0))'
--
6760-	Offending '((!rst) | ({AWREADY, WREADY, BVALID, BRESP, ARREADY, RVALID, RDATA, RRESP} == 0))'
6761-UVM_INFO axi_scoreboard.sv(98) @ 97350: uvm_test_top.env.sb [AXI_SB] CHECK PASS
6762-UVM_INFO axi_base_seq.sv(24) @ 97350: uvm_test_top.env.wr_agt.sqr@@wr1 [SEQ] AWADDR=232, AWPROT=0, AWVALID=0, WDATA=1164572856, WSTRB=111, WVALID=0, ARADDR=70, ARPROT=0, ARVALID=0, RREADY=1
6763-"axi_bus_if.sv", 44: tb_top.bus_if.asyncrst: started at 9740000ps failed at 9740000ps
6764-	Offending '((!rst) | ({AWREADY, WREADY, BVALID, BRESP, ARREADY, RVALID, RDATA, RRESP} == 0))'
6765-"axi_bus_if.sv", 40: tb_top.bus_if.checkrst: started at 9745000ps failed at 9745000ps
6766-	Offending '((!rst) | ({AWREADY, WREADY, BVALID, BRESP, ARREADY, RVALID, RDATA, RRESP} == 0))'
6767-UVM_INFO axi_scoreboard.sv(98) @ 97450: uvm_test_top.env.sb [AXI_SB] CHECK PASS
6768-UVM_INFO axi_base_seq.sv(24) @ 97450: uvm_test_top.env.wr_agt.sqr@@rd [SEQ] AWADDR=160, AWPROT=0, AWVALID=0, WDATA=869306167, WSTRB=1000, WVALID=0, ARADDR=68, ARPROT=0, ARVALID=1, RREADY=0
6769-"axi_bus_if.sv", 44: tb_top.bus_if.asyncrst: started at 9750000ps failed at 9750000ps
6770-	Offending '((!rst) | ({AWREADY, WREADY, BVALID, BRESP, ARREADY, RVALID, RDATA, RRESP} == 0))'
6771-"axi_bus_if.sv", 40: tb_top.bus_if.checkrst: started at 9755000ps failed at 9755000ps
6772-	Offending '((!rst) | ({AWREADY, WREADY, BVALID, BRESP, ARREADY, RVALID, RDATA, RRESP} == 0))'
6773-UVM_INFO axi_scoreboard.sv(98) @ 97550: uvm_test_top.env.sb [AXI_SB] CHECK PASS
6774-UVM_INFO axi_base_seq.sv(24) @ 97550: uvm_test_top.env.wr_agt.sqr@@wr_rd [SEQ] AWADDR=173, AWPROT=0, AWVALID=1, WDATA=2839576470, WSTRB=110, WVALID=1, ARADDR=127, ARPROT=0, ARVALID=1, RREADY=0
6775-"axi_bus_if.sv", 44: tb_top.bus_if.asyncrst: started at 9760000ps failed at 9760000ps
6776-	Offending '((!rst) | ({AWREADY, WREADY, BVALID, BRESP, ARREADY, RVALID, RDATA, RRESP} == 0))'
6777-"axi_bus_if.sv", 40: tb_top.bus_if.checkrst: started at 9765000ps failed at 9765000ps
6778-	Offending '((!rst) | ({AWREADY, WREADY, BVALID, BRESP, ARREADY, RVALID, RDATA, RRESP} == 0))'
6779-UVM_INFO axi_scoreboard.sv(98) @ 97650: uvm_test_top.env.sb [AXI_SB] CHECK PASS
6780:UVM_INFO axi_base_seq.sv(24) @ 97650: uvm_test_top.env.wr_agt.sqr@@main_seq [SEQ] AWADDR=127, AWPROT=0, AWVALID=1, WDATA=1455987650, WSTRB=0, WVALID=1, ARADDR=83, ARPROT=0, ARVALID=1, RREADY=0
6781-"axi_bus_if.sv", 44: tb_top.bus_if.asyncrst: started at 9770000ps failed at 9770000ps
6782-	Offending '((!rst) | ({AWREADY, WREADY, BVALID, BRESP, ARREADY, RVALID, RDATA, RRESP} == 0))'
6783-"axi_bus_if.sv", 40: tb_top.bus_if.checkrst: started at 9775000ps failed at 9775000ps
6784-	Offending '((!rst) | ({AWREADY, WREADY, BVALID, BRESP, ARREADY, RVALID, RDATA, RRESP} == 0))'
6785-UVM_INFO axi_scoreboard.sv(98) @ 97750: uvm_test_top.env.sb [AXI_SB] CHECK PASS
6786-UVM_INFO axi_base_seq.sv(24) @ 97750: uvm_test_top.env.wr_agt.sqr@@wr [SEQ] AWADDR=78, AWPROT=0, AWVALID=1, WDATA=1691754627, WSTRB=11, WVALID=1, ARADDR=201, ARPROT=0, ARVALID=0, RREADY=0
6787-"axi_bus_if.sv", 44: tb_top.bus_if.asyncrst: started at 9780000ps failed at 9780000ps
6788-	Offending '((!rst) | ({AWREADY, WREADY, BVALID, BRESP, ARREADY, RVALID, RDATA, RRESP} == 0))'
6789-"axi_bus_if.sv", 40: tb_top.bus_if.checkrst: started at 9785000ps failed at 9785000ps
6790-	Offending '((!rst) | ({AWREADY, WREADY, BVALID, BRESP, ARREADY, RVALID, RDATA, RRESP} == 0))'
6791-UVM_INFO axi_scoreboard.sv(98) @ 97850: uvm_test_top.env.sb [AXI_SB] CHECK PASS
6792-UVM_INFO axi_base_seq.sv(24) @ 97850: uvm_test_top.env.wr_agt.sqr@@rd [SEQ] AWADDR=216, AWPROT=0, AWVALID=0, WDATA=934585027, WSTRB=0, WVALID=0, ARADDR=216, ARPROT=0, ARVALID=1, RREADY=0
6793-"axi_bus_if.sv", 44: tb_top.bus_if.asyncrst: started at 9790000ps failed at 9790000ps
6794-	Offending '((!rst) | ({AWREADY, WREADY, BVALID, BRESP, ARREADY, RVALID, RDATA, RRESP} == 0))'
6795-"axi_bus_if.sv", 40: tb_top.bus_if.checkrst: started at 9795000ps failed at 9795000ps
6796-	Offending '((!rst) | ({AWREADY, WREADY, BVALID, BRESP, ARREADY, RVALID, RDATA, RRESP} == 0))'
6797-UVM_INFO axi_scoreboard.sv(98) @ 97950: uvm_test_top.env.sb [AXI_SB] CHECK PASS
6798-UVM_INFO axi_base_seq.sv(24) @ 97950: uvm_test_top.env.wr_agt.sqr@@wr1 [SEQ] AWADDR=232, AWPROT=0, AWVALID=0, WDATA=1164572856, WSTRB=111, WVALID=0, ARADDR=70, ARPROT=0, ARVALID=0, RREADY=1
6799-"axi_bus_if.sv", 44: tb_top.bus_if.asyncrst: started at 9800000ps failed at 9800000ps
6800-	Offending '((!rst) | ({AWREADY, WREADY, BVALID, BRESP, ARREADY, RVALID, RDATA, RRESP} == 0))'
--
7150-	Offending '((!rst) | ({AWREADY, WREADY, BVALID, BRESP, ARREADY, RVALID, RDATA, RRESP} == 0))'
7151-UVM_INFO axi_scoreboard.sv(98) @ 103850: uvm_test_top.env.sb [AXI_SB] CHECK PASS
7152-UVM_INFO axi_base_seq.sv(24) @ 103850: uvm_test_top.env.wr_agt.sqr@@rd [SEQ] AWADDR=216, AWPROT=0, AWVALID=0, WDATA=934585027, WSTRB=0, WVALID=0, ARADDR=102, ARPROT=0, ARVALID=1, RREADY=0
7153-"axi_bus_if.sv", 44: tb_top.bus_if.asyncrst: started at 10390000ps failed at 10390000ps
7154-	Offending '((!rst) | ({AWREADY, WREADY, BVALID, BRESP, ARREADY, RVALID, RDATA, RRESP} == 0))'
7155-"axi_bus_if.sv", 40: tb_top.bus_if.checkrst: started at 10395000ps failed at 10395000ps
7156-	Offending '((!rst) | ({AWREADY, WREADY, BVALID, BRESP, ARREADY, RVALID, RDATA, RRESP} == 0))'
7157-UVM_INFO axi_scoreboard.sv(98) @ 103950: uvm_test_top.env.sb [AXI_SB] CHECK PASS
7158-UVM_INFO axi_base_seq.sv(24) @ 103950: uvm_test_top.env.wr_agt.sqr@@wr1 [SEQ] AWADDR=232, AWPROT=0, AWVALID=0, WDATA=1164572856, WSTRB=111, WVALID=0, ARADDR=70, ARPROT=0, ARVALID=0, RREADY=1
7159-"axi_bus_if.sv", 44: tb_top.bus_if.asyncrst: started at 10400000ps failed at 10400000ps
7160-	Offending '((!rst) | ({AWREADY, WREADY, BVALID, BRESP, ARREADY, RVALID, RDATA, RRESP} == 0))'
7161-"axi_bus_if.sv", 40: tb_top.bus_if.checkrst: started at 10405000ps failed at 10405000ps
7162-	Offending '((!rst) | ({AWREADY, WREADY, BVALID, BRESP, ARREADY, RVALID, RDATA, RRESP} == 0))'
7163-UVM_INFO axi_scoreboard.sv(98) @ 104050: uvm_test_top.env.sb [AXI_SB] CHECK PASS
7164-UVM_INFO axi_base_seq.sv(24) @ 104050: uvm_test_top.env.wr_agt.sqr@@rd [SEQ] AWADDR=160, AWPROT=0, AWVALID=0, WDATA=869306167, WSTRB=1000, WVALID=0, ARADDR=130, ARPROT=0, ARVALID=1, RREADY=0
7165-"axi_bus_if.sv", 44: tb_top.bus_if.asyncrst: started at 10410000ps failed at 10410000ps
7166-	Offending '((!rst) | ({AWREADY, WREADY, BVALID, BRESP, ARREADY, RVALID, RDATA, RRESP} == 0))'
7167-"axi_bus_if.sv", 40: tb_top.bus_if.checkrst: started at 10415000ps failed at 10415000ps
7168-	Offending '((!rst) | ({AWREADY, WREADY, BVALID, BRESP, ARREADY, RVALID, RDATA, RRESP} == 0))'
7169-UVM_INFO axi_scoreboard.sv(98) @ 104150: uvm_test_top.env.sb [AXI_SB] CHECK PASS
7170:UVM_INFO axi_base_seq.sv(24) @ 104150: uvm_test_top.env.wr_agt.sqr@@wr_rd [SEQ] AWADDR=214, AWPROT=0, AWVALID=1, WDATA=4036094645, WSTRB=1, WVALID=1, ARADDR=85, ARPROT=0, ARVALID=1, RREADY=0
7171-"axi_bus_if.sv", 44: tb_top.bus_if.asyncrst: started at 10420000ps failed at 10420000ps
7172-	Offending '((!rst) | ({AWREADY, WREADY, BVALID, BRESP, ARREADY, RVALID, RDATA, RRESP} == 0))'
7173-"axi_bus_if.sv", 40: tb_top.bus_if.checkrst: started at 10425000ps failed at 10425000ps
7174-	Offending '((!rst) | ({AWREADY, WREADY, BVALID, BRESP, ARREADY, RVALID, RDATA, RRESP} == 0))'
7175-UVM_INFO axi_scoreboard.sv(98) @ 104250: uvm_test_top.env.sb [AXI_SB] CHECK PASS
7176-UVM_INFO axi_base_seq.sv(24) @ 104250: uvm_test_top.env.wr_agt.sqr@@main_seq [SEQ] AWADDR=189, AWPROT=0, AWVALID=1, WDATA=2606459949, WSTRB=10, WVALID=0, ARADDR=130, ARPROT=0, ARVALID=0, RREADY=1
7177-"axi_bus_if.sv", 44: tb_top.bus_if.asyncrst: started at 10430000ps failed at 10430000ps
7178-	Offending '((!rst) | ({AWREADY, WREADY, BVALID, BRESP, ARREADY, RVALID, RDATA, RRESP} == 0))'
7179-"axi_bus_if.sv", 40: tb_top.bus_if.checkrst: started at 10435000ps failed at 10435000ps
7180-	Offending '((!rst) | ({AWREADY, WREADY, BVALID, BRESP, ARREADY, RVALID, RDATA, RRESP} == 0))'
7181-UVM_INFO axi_scoreboard.sv(98) @ 104350: uvm_test_top.env.sb [AXI_SB] CHECK PASS
7182-UVM_INFO axi_base_seq.sv(24) @ 104350: uvm_test_top.env.wr_agt.sqr@@wr [SEQ] AWADDR=117, AWPROT=0, AWVALID=1, WDATA=3787806913, WSTRB=111, WVALID=1, ARADDR=201, ARPROT=0, ARVALID=0, RREADY=1
7183-"axi_bus_if.sv", 44: tb_top.bus_if.asyncrst: started at 10440000ps failed at 10440000ps
7184-	Offending '((!rst) | ({AWREADY, WREADY, BVALID, BRESP, ARREADY, RVALID, RDATA, RRESP} == 0))'
7185-"axi_bus_if.sv", 40: tb_top.bus_if.checkrst: started at 10445000ps failed at 10445000ps
7186-	Offending '((!rst) | ({AWREADY, WREADY, BVALID, BRESP, ARREADY, RVALID, RDATA, RRESP} == 0))'
7187-UVM_INFO axi_scoreboard.sv(98) @ 104450: uvm_test_top.env.sb [AXI_SB] CHECK PASS
7188-UVM_INFO axi_base_seq.sv(24) @ 104450: uvm_test_top.env.wr_agt.sqr@@rd [SEQ] AWADDR=216, AWPROT=0, AWVALID=0, WDATA=934585027, WSTRB=0, WVALID=0, ARADDR=69, ARPROT=0, ARVALID=1, RREADY=1
7189-"axi_bus_if.sv", 44: tb_top.bus_if.asyncrst: started at 10450000ps failed at 10450000ps
7190-	Offending '((!rst) | ({AWREADY, WREADY, BVALID, BRESP, ARREADY, RVALID, RDATA, RRESP} == 0))'
7191-"axi_bus_if.sv", 40: tb_top.bus_if.checkrst: started at 10455000ps failed at 10455000ps
7192-	Offending '((!rst) | ({AWREADY, WREADY, BVALID, BRESP, ARREADY, RVALID, RDATA, RRESP} == 0))'
7193-UVM_INFO axi_scoreboard.sv(98) @ 104550: uvm_test_top.env.sb [AXI_SB] CHECK PASS
7194-UVM_INFO axi_base_seq.sv(24) @ 104550: uvm_test_top.env.wr_agt.sqr@@wr1 [SEQ] AWADDR=232, AWPROT=0, AWVALID=0, WDATA=1164572856, WSTRB=111, WVALID=0, ARADDR=70, ARPROT=0, ARVALID=0, RREADY=1
7195-"axi_bus_if.sv", 44: tb_top.bus_if.asyncrst: started at 10460000ps failed at 10460000ps
7196-	Offending '((!rst) | ({AWREADY, WREADY, BVALID, BRESP, ARREADY, RVALID, RDATA, RRESP} == 0))'
7197-"axi_bus_if.sv", 40: tb_top.bus_if.checkrst: started at 10465000ps failed at 10465000ps
7198-	Offending '((!rst) | ({AWREADY, WREADY, BVALID, BRESP, ARREADY, RVALID, RDATA, RRESP} == 0))'
7199-UVM_INFO axi_scoreboard.sv(98) @ 104650: uvm_test_top.env.sb [AXI_SB] CHECK PASS
7200-UVM_INFO axi_base_seq.sv(24) @ 104650: uvm_test_top.env.wr_agt.sqr@@rd [SEQ] AWADDR=160, AWPROT=0, AWVALID=0, WDATA=869306167, WSTRB=1000, WVALID=0, ARADDR=130, ARPROT=0, ARVALID=1, RREADY=0
7201-"axi_bus_if.sv", 44: tb_top.bus_if.asyncrst: started at 10470000ps failed at 10470000ps
7202-	Offending '((!rst) | ({AWREADY, WREADY, BVALID, BRESP, ARREADY, RVALID, RDATA, RRESP} == 0))'
7203-"axi_bus_if.sv", 40: tb_top.bus_if.checkrst: started at 10475000ps failed at 10475000ps
7204-	Offending '((!rst) | ({AWREADY, WREADY, BVALID, BRESP, ARREADY, RVALID, RDATA, RRESP} == 0))'
7205-UVM_INFO axi_scoreboard.sv(98) @ 104750: uvm_test_top.env.sb [AXI_SB] CHECK PASS
7206:UVM_INFO axi_base_seq.sv(24) @ 104750: uvm_test_top.env.wr_agt.sqr@@wr_rd [SEQ] AWADDR=214, AWPROT=0, AWVALID=1, WDATA=4036094645, WSTRB=1, WVALID=1, ARADDR=85, ARPROT=0, ARVALID=1, RREADY=1
7207-"axi_bus_if.sv", 44: tb_top.bus_if.asyncrst: started at 10480000ps failed at 10480000ps
7208-	Offending '((!rst) | ({AWREADY, WREADY, BVALID, BRESP, ARREADY, RVALID, RDATA, RRESP} == 0))'
7209-"axi_bus_if.sv", 40: tb_top.bus_if.checkrst: started at 10485000ps failed at 10485000ps
7210-	Offending '((!rst) | ({AWREADY, WREADY, BVALID, BRESP, ARREADY, RVALID, RDATA, RRESP} == 0))'
7211-UVM_INFO axi_scoreboard.sv(98) @ 104850: uvm_test_top.env.sb [AXI_SB] CHECK PASS
7212-UVM_INFO axi_base_seq.sv(24) @ 104850: uvm_test_top.env.wr_agt.sqr@@main_seq [SEQ] AWADDR=189, AWPROT=0, AWVALID=1, WDATA=2606459949, WSTRB=10, WVALID=0, ARADDR=130, ARPROT=0, ARVALID=0, RREADY=0
7213-"axi_bus_if.sv", 44: tb_top.bus_if.asyncrst: started at 10490000ps failed at 10490000ps
7214-	Offending '((!rst) | ({AWREADY, WREADY, BVALID, BRESP, ARREADY, RVALID, RDATA, RRESP} == 0))'
7215-"axi_bus_if.sv", 40: tb_top.bus_if.checkrst: started at 10495000ps failed at 10495000ps
7216-	Offending '((!rst) | ({AWREADY, WREADY, BVALID, BRESP, ARREADY, RVALID, RDATA, RRESP} == 0))'
7217-UVM_INFO axi_scoreboard.sv(98) @ 104950: uvm_test_top.env.sb [AXI_SB] CHECK PASS
7218-UVM_INFO axi_base_seq.sv(24) @ 104950: uvm_test_top.env.wr_agt.sqr@@wr [SEQ] AWADDR=117, AWPROT=0, AWVALID=1, WDATA=3787806913, WSTRB=111, WVALID=1, ARADDR=201, ARPROT=0, ARVALID=0, RREADY=0
7219-"axi_bus_if.sv", 44: tb_top.bus_if.asyncrst: started at 10500000ps failed at 10500000ps
7220-	Offending '((!rst) | ({AWREADY, WREADY, BVALID, BRESP, ARREADY, RVALID, RDATA, RRESP} == 0))'
7221-"axi_bus_if.sv", 40: tb_top.bus_if.checkrst: started at 10505000ps failed at 10505000ps
7222-	Offending '((!rst) | ({AWREADY, WREADY, BVALID, BRESP, ARREADY, RVALID, RDATA, RRESP} == 0))'
7223-UVM_INFO axi_scoreboard.sv(98) @ 105050: uvm_test_top.env.sb [AXI_SB] CHECK PASS
7224-UVM_INFO axi_base_seq.sv(24) @ 105050: uvm_test_top.env.wr_agt.sqr@@rd [SEQ] AWADDR=216, AWPROT=0, AWVALID=0, WDATA=934585027, WSTRB=0, WVALID=0, ARADDR=69, ARPROT=0, ARVALID=1, RREADY=0
7225-"axi_bus_if.sv", 44: tb_top.bus_if.asyncrst: started at 10510000ps failed at 10510000ps
7226-	Offending '((!rst) | ({AWREADY, WREADY, BVALID, BRESP, ARREADY, RVALID, RDATA, RRESP} == 0))'
7227-"axi_bus_if.sv", 40: tb_top.bus_if.checkrst: started at 10515000ps failed at 10515000ps
7228-	Offending '((!rst) | ({AWREADY, WREADY, BVALID, BRESP, ARREADY, RVALID, RDATA, RRESP} == 0))'
7229-UVM_INFO axi_scoreboard.sv(98) @ 105150: uvm_test_top.env.sb [AXI_SB] CHECK PASS
7230-UVM_INFO axi_base_seq.sv(24) @ 105150: uvm_test_top.env.wr_agt.sqr@@wr1 [SEQ] AWADDR=232, AWPROT=0, AWVALID=0, WDATA=1164572856, WSTRB=111, WVALID=0, ARADDR=70, ARPROT=0, ARVALID=0, RREADY=1
7231-"axi_bus_if.sv", 44: tb_top.bus_if.asyncrst: started at 10520000ps failed at 10520000ps
7232-	Offending '((!rst) | ({AWREADY, WREADY, BVALID, BRESP, ARREADY, RVALID, RDATA, RRESP} == 0))'
7233-"axi_bus_if.sv", 40: tb_top.bus_if.checkrst: started at 10525000ps failed at 10525000ps
7234-	Offending '((!rst) | ({AWREADY, WREADY, BVALID, BRESP, ARREADY, RVALID, RDATA, RRESP} == 0))'
7235-UVM_INFO axi_scoreboard.sv(98) @ 105250: uvm_test_top.env.sb [AXI_SB] CHECK PASS
7236-UVM_INFO axi_base_seq.sv(24) @ 105250: uvm_test_top.env.wr_agt.sqr@@rd [SEQ] AWADDR=160, AWPROT=0, AWVALID=0, WDATA=869306167, WSTRB=1000, WVALID=0, ARADDR=130, ARPROT=0, ARVALID=1, RREADY=1
7237-"axi_bus_if.sv", 44: tb_top.bus_if.asyncrst: started at 10530000ps failed at 10530000ps
7238-	Offending '((!rst) | ({AWREADY, WREADY, BVALID, BRESP, ARREADY, RVALID, RDATA, RRESP} == 0))'
7239-"axi_bus_if.sv", 40: tb_top.bus_if.checkrst: started at 10535000ps failed at 10535000ps
7240-	Offending '((!rst) | ({AWREADY, WREADY, BVALID, BRESP, ARREADY, RVALID, RDATA, RRESP} == 0))'
7241-UVM_INFO axi_scoreboard.sv(98) @ 105350: uvm_test_top.env.sb [AXI_SB] CHECK PASS
7242:UVM_INFO axi_base_seq.sv(24) @ 105350: uvm_test_top.env.wr_agt.sqr@@wr_rd [SEQ] AWADDR=214, AWPROT=0, AWVALID=1, WDATA=4036094645, WSTRB=1, WVALID=1, ARADDR=85, ARPROT=0, ARVALID=1, RREADY=1
7243-"axi_bus_if.sv", 44: tb_top.bus_if.asyncrst: started at 10540000ps failed at 10540000ps
7244-	Offending '((!rst) | ({AWREADY, WREADY, BVALID, BRESP, ARREADY, RVALID, RDATA, RRESP} == 0))'
7245-"axi_bus_if.sv", 40: tb_top.bus_if.checkrst: started at 10545000ps failed at 10545000ps
7246-	Offending '((!rst) | ({AWREADY, WREADY, BVALID, BRESP, ARREADY, RVALID, RDATA, RRESP} == 0))'
7247-UVM_INFO axi_scoreboard.sv(98) @ 105450: uvm_test_top.env.sb [AXI_SB] CHECK PASS
7248-UVM_INFO axi_base_seq.sv(24) @ 105450: uvm_test_top.env.wr_agt.sqr@@main_seq [SEQ] AWADDR=189, AWPROT=0, AWVALID=1, WDATA=2606459949, WSTRB=10, WVALID=0, ARADDR=130, ARPROT=0, ARVALID=1, RREADY=0
7249-"axi_bus_if.sv", 44: tb_top.bus_if.asyncrst: started at 10550000ps failed at 10550000ps
7250-	Offending '((!rst) | ({AWREADY, WREADY, BVALID, BRESP, ARREADY, RVALID, RDATA, RRESP} == 0))'
7251-"axi_bus_if.sv", 40: tb_top.bus_if.checkrst: started at 10555000ps failed at 10555000ps
